20:13:04.801 -> 1Standard ID: 0x412       DLC: 2  Data: 0x00 0x00
20:13:04.801 -> 1Standard ID: 0x036       DLC: 8  Data: 0x00 0x00 0x00 0x0F 0x03 0x00 0x00 0xA0
20:13:04.801 -> 1Standard ID: 0x412       DLC: 2  Data: 0x00 0x00
20:13:04.834 -> 1Standard ID: 0x412       DLC: 2  Data: 0x00 0x00
20:13:04.834 -> 1Standard ID: 0x412       DLC: 2  Data: 0x00 0x00
20:13:04.834 -> 1Standard ID: 0x412       DLC: 2  Data: 0x00 0x00
20:13:04.834 -> 1Standard ID: 0x036       DLC: 8  Data: 0x00 0x00 0x00 0x0F 0x01 0x00 0x00 0xA0
20:13:04.867 -> 1Standard ID: 0x5D2       DLC: 8  Data: 0xB2 0x18 0x07 0x07 0x01 0x05 0x0D 0x03
20:13:04.867 -> 1Standard ID: 0x512       DLC: 8  Data: 0x01 0x00 0x00 0x00 0x00 0x80 0x00 0x00
20:13:04.867 -> 1Standard ID: 0x5E5       DLC: 8  Data: 0x25 0x1D 0x03 0x06 0x08 0x00 0x20 0x10
20:13:04.867 -> 1Standard ID: 0x14C       DLC: 5  Data: 0x00 0x00 0x00 0x00 0x00
20:13:04.867 -> 1Standard ID: 0x21F       DLC: 3  Data: 0x00 0x00 0x00
20:13:04.900 -> 1Standard ID: 0x168       DLC: 8  Data: 0x8E 0x00 0x00 0xA2 0x24 0x00 0x30 0x00
20:13:04.900 -> 1Standard ID: 0x036       DLC: 8  Data: 0x00 0x00 0x00 0x0F 0x01 0x00 0x00 0xA0
20:13:04.900 -> 1Standard ID: 0x0B6       DLC: 8  Data: 0x00 0x00 0x00 0x00 0x00 0x00 0x00 0xD0
20:13:04.900 -> 1Standard ID: 0x261       DLC: 7  Data: 0x22 0x27 0x0F 0x00 0x50 0x44 0x97
20:13:04.900 -> 1Standard ID: 0x0B6       DLC: 8  Data: 0x00 0x00 0x00 0x00 0x00 0x00 0x00 0xD0
20:13:04.933 -> 1Standard ID: 0x361       DLC: 6  Data: 0x01 0x00 0x00 0x60 0x10 0x08
20:13:04.933 -> 1Standard ID: 0x1A1       DLC: 8  Data: 0x7F 0xFF 0x00 0xFF 0xFF 0xFF 0xFF 0xFF
20:13:04.933 -> 1Standard ID: 0x3F6       DLC: 7  Data: 0x05 0x41 0x00 0xCE 0x00 0x84 0x01
20:13:04.933 -> 1Standard ID: 0x3F6       DLC: 7  Data: 0x05 0x3C 0x40 0xCE 0x00 0x84 0x01
20:13:04.933 -> 1Standard ID: 0x15B       DLC: 8  Data: 0x05 0x00 0x00 0x00 0x00 0x00 0x00 0xF0
20:13:04.933 -> 1Standard ID: 0x0F6       DLC: 8  Data: 0x88 0x3C 0x10 0xF2 0xCA 0x6C 0x6C 0x18
20:13:04.967 -> 1Standard ID: 0x167       DLC: 8  Data: 0x08 0x06 0xFF 0xFF 0x7F 0xFF 0x00 0x00
20:13:04.967 -> 1Standard ID: 0x128       DLC: 8  Data: 0x30 0xC0 0x00 0x00 0x00 0x81 0xB0 0x01
20:13:04.967 -> 1Standard ID: 0x14C       DLC: 5  Data: 0x00 0x00 0x00 0x00 0x80
20:13:04.967 -> 1Standard ID: 0x21F       DLC: 3  Data: 0x00 0x00 0x00
20:13:04.967 -> 1Standard ID: 0x2A0       DLC: 1  Data: 0x00
20:13:05.000 -> 1Standard ID: 0x1A8       DLC: 8  Data: 0x00 0x00 0x00 0x00 0x00 0x10 0x01 0x29
20:13:05.000 -> 1Standard ID: 0x036       DLC: 8  Data: 0x00 0x00 0x00 0x0F 0x01 0x00 0x00 0xA0
20:13:05.000 -> 1Standard ID: 0x167       DLC: 8  Data: 0x02 0x06 0xFF 0xFF 0x7F 0xFF 0x00 0x00
20:13:05.000 -> 1Standard ID: 0x3B6       DLC: 6  Data: 0x57 0x43 0x4B 0x46 0x56 0x43
20:13:05.000 -> 1Standard ID: 0x0B6       DLC: 8  Data: 0x00 0x00 0x00 0x00 0x00 0x00 0x00 0xD0
20:13:05.033 -> 1Standard ID: 0x260       DLC: 8  Data: 0x02 0x03 0x92 0x40 0x00 0xD0 0x00 0x10
20:13:05.033 -> 1Standard ID: 0x217       DLC: 8  Data: 0xF0 0x00 0x00 0x00 0x80 0xFF 0xFF 0xFF
20:13:05.033 -> 1Standard ID: 0x317       DLC: 8  Data: 0xF3 0x9D 0x92 0xCC 0xD8 0x00 0x86 0x02
20:13:05.033 -> 1Standard ID: 0x51F       DLC: 8  Data: 0x01 0x00 0x00 0x00 0x00 0x00 0x00 0x00
20:13:05.033 -> 1Standard ID: 0x018       DLC: 5  Data: 0x80 0x00 0x00 0x00 0x00
20:13:05.088 -> 1Standard ID: 0x5DF       DLC: 8  Data: 0x1F 0x16 0x08 0x05 0x09 0x00 0x20 0x17
20:13:05.088 -> 1Standard ID: 0x0B6       DLC: 8  Data: 0x00 0x00 0x00 0x00 0x00 0x00 0x00 0xD0
20:13:05.088 -> 1Standard ID: 0x018       DLC: 5  Data: 0x00 0x00 0x00 0x00 0x00
20:13:05.088 -> 1Standard ID: 0x14C       DLC: 5  Data: 0x00 0x00 0x00 0x00 0x80
20:13:05.088 -> 1Standard ID: 0x217       DLC: 8  Data: 0xF2 0x80 0x00 0x00 0x80 0xFF 0xFF 0xFF
20:13:05.088 -> 1Standard ID: 0x018       DLC: 5  Data: 0x00 0x00 0x00 0x00 0x00
20:13:05.088 -> 1Standard ID: 0x168       DLC: 8  Data: 0x8C 0x00 0x00 0xA2 0x24 0x00 0x30 0x00
20:13:05.088 -> 1Standard ID: 0x036       DLC: 8  Data: 0x00 0x00 0x00 0x0F 0x01 0x00 0x00 0xA0
20:13:05.088 -> 1Standard ID: 0x257       DLC: 6  Data: 0x10 0xF2 0xCA 0xEF 0x0D 0x35
20:13:05.099 -> 1Standard ID: 0x0B6       DLC: 8  Data: 0x00 0x00 0x00 0x00 0x00 0x00 0x00 0xD0
20:13:05.132 -> 1Standard ID: 0x227       DLC: 4  Data: 0x00 0x00 0x00 0x00
20:13:05.132 -> 1Standard ID: 0x217       DLC: 8  Data: 0xF2 0x40 0x00 0x00 0x80 0xFF 0xFF 0xFF
20:13:05.132 -> 1Standard ID: 0x1A1       DLC: 8  Data: 0x7F 0xFF 0x00 0xFF 0xFF 0xFF 0xFF 0xFF
20:13:05.132 -> 1Standard ID: 0x0B6       DLC: 8  Data: 0x00 0x00 0x00 0x00 0x00 0x00 0x00 0xD0
20:13:05.132 -> 1Standard ID: 0x0E6       DLC: 6  Data: 0x91 0x00 0x00 0x00 0x00 0x6C
20:13:05.132 -> 1Standard ID: 0x257       DLC: 6  Data: 0x10 0xF2 0xCA 0xEF 0x0D 0x35
20:13:05.166 -> 1Standard ID: 0x0B6       DLC: 8  Data: 0x00 0x00 0x00 0x00 0x00 0x00 0x00 0xD0
20:13:05.166 -> 1Standard ID: 0x128       DLC: 8  Data: 0x31 0xC0 0x00 0x00 0x00 0x81 0xB0 0x01
20:13:05.166 -> 1Standard ID: 0x14C       DLC: 5  Data: 0x00 0x00 0x00 0x00 0x80
20:13:05.166 -> 1Standard ID: 0x21F       DLC: 3  Data: 0x00 0x00 0x00
20:13:05.166 -> 1Standard ID: 0x1A8       DLC: 8  Data: 0x00 0x00 0x00 0x00 0x00 0x10 0x01 0x29
20:13:05.199 -> 1Standard ID: 0x036       DLC: 8  Data: 0x00 0x00 0x00 0x0F 0x01 0x00 0x00 0xA0
20:13:05.199 -> 1Standard ID: 0x167       DLC: 8  Data: 0x02 0x06 0xFF 0xFF 0x7F 0xFF 0x00 0x00
20:13:05.199 -> 1Standard ID: 0x2B6       DLC: 8  Data: 0x33 0x34 0x30 0x32 0x38 0x39 0x33 0x37
20:13:05.199 -> 1Standard ID: 0x0B6       DLC: 8  Data: 0x00 0x00 0x00 0x00 0x00 0x00 0x00 0xD0
20:13:05.199 -> 1Standard ID: 0x161       DLC: 7  Data: 0x00 0x00 0x3C 0x00 0x00 0x00 0x64
20:13:05.232 -> 1Standard ID: 0x217       DLC: 8  Data: 0xF2 0x40 0x00 0x00 0x80 0xFF 0xFF 0xFF
20:13:05.232 -> 1Standard ID: 0x0E6       DLC: 6  Data: 0x91 0x00 0x00 0x00 0x00 0x6B
20:13:05.265 -> 1Standard ID: 0x0B6       DLC: 8  Data: 0x00 0x00 0x00 0x00 0x00 0x00 0x00 0xD0
20:13:05.265 -> 1Standard ID: 0x14C       DLC: 5  Data: 0x00 0x00 0x00 0x00 0x80
20:13:05.265 -> 1Standard ID: 0x21F       DLC: 3  Data: 0x00 0x00 0x00
20:13:05.265 -> 1Standard ID: 0x3A7       DLC: 8  Data: 0x10 0x00 0x00 0x03 0x66 0x00 0x36 0x05
20:13:05.265 -> 1Standard ID: 0x018       DLC: 5  Data: 0x00 0x00 0x00 0x00 0x00
20:13:05.298 -> 1Standard ID: 0x168       DLC: 8  Data: 0x8C 0x00 0x00 0xA2 0x24 0x00 0x30 0x00
20:13:05.298 -> 1Standard ID: 0x036       DLC: 8  Data: 0x00 0x00 0x00 0x0F 0x01 0x00 0x00 0xA0
20:13:05.298 -> 1Standard ID: 0x167       DLC: 8  Data: 0x02 0x06 0xFF 0xFF 0x7F 0xFF 0x00 0x00
20:13:05.298 -> 1Standard ID: 0x0B6       DLC: 8  Data: 0x00 0x00 0x00 0x00 0x00 0x00 0x00 0xD0
20:13:05.298 -> 1Standard ID: 0x220       DLC: 2  Data: 0x00 0x00
20:13:05.298 -> 1Standard ID: 0x217       DLC: 8  Data: 0xF2 0x40 0x00 0x00 0x80 0xFF 0xFF 0xFF
20:13:05.331 -> 1Standard ID: 0x1A1       DLC: 8  Data: 0x7F 0xFF 0x00 0xFF 0xFF 0xFF 0xFF 0xFF
20:13:05.331 -> 1Standard ID: 0x0E6       DLC: 6  Data: 0x91 0x00 0x00 0x00 0x00 0x6B
20:13:05.331 -> 1Standard ID: 0x0DF       DLC: 3  Data: 0x04 0x00 0x40
20:13:05.365 -> 1Standard ID: 0x0B6       DLC: 8  Data: 0x00 0x00 0x00 0x00 0x00 0x00 0x00 0xD0
20:13:05.365 -> 1Standard ID: 0x128       DLC: 8  Data: 0x31 0xC0 0x00 0x00 0x00 0x81 0xB0 0x01
20:13:05.365 -> 1Standard ID: 0x018       DLC: 5  Data: 0x80 0x00 0x00 0x00 0x00
20:13:05.365 -> 1Standard ID: 0x14C       DLC: 5  Data: 0x00 0x00 0x00 0x00 0x80
20:13:05.365 -> 1Standard ID: 0x018       DLC: 5  Data: 0x80 0x00 0x00 0x00 0x00
20:13:05.365 -> 1Standard ID: 0x21F       DLC: 3  Data: 0x00 0x00 0x00
20:13:05.398 -> 1Standard ID: 0x018       DLC: 5  Data: 0x80 0x00 0x00 0x00 0x00
20:13:05.398 -> 1Standard ID: 0x036       DLC: 8  Data: 0x00 0x00 0x00 0x0F 0x01 0x00 0x00 0xA0
20:13:05.398 -> 1Standard ID: 0x167       DLC: 8  Data: 0x02 0x06 0xFF 0xFF 0x7F 0xFF 0x00 0x00
20:13:05.398 -> 1Standard ID: 0x0B6       DLC: 8  Data: 0x00 0x00 0x00 0x00 0x00 0x00 0x00 0xD0
20:13:05.398 -> 1Standard ID: 0x1A8       DLC: 8  Data: 0x00 0x00 0x00 0x00 0x00 0x10 0x01 0x29
20:13:05.431 -> 1Standard ID: 0x361       DLC: 6  Data: 0x01 0x00 0x00 0x60 0x10 0x08
20:13:05.431 -> 1Standard ID: 0x217       DLC: 8  Data: 0xF2 0x40 0x00 0x00 0x80 0xFF 0xFF 0xFF
20:13:05.431 -> 1Standard ID: 0x0E6       DLC: 6  Data: 0x91 0x00 0x00 0x00 0x00 0x6B
20:13:05.431 -> 1Standard ID: 0x15B       DLC: 8  Data: 0x05 0x00 0x00 0x00 0x00 0x00 0x00 0xF0
20:13:05.431 -> 1Standard ID: 0x0F6       DLC: 8  Data: 0x88 0x5E 0x10 0xF2 0xCA 0x6C 0x6C 0x18
20:13:05.464 -> 1Standard ID: 0x0B6       DLC: 8  Data: 0x00 0x00 0x00 0x00 0x00 0x00 0x00 0xD0
20:13:05.464 -> 1Standard ID: 0x14C       DLC: 5  Data: 0x00 0x00 0x00 0x00 0x80
20:13:05.464 -> 1Standard ID: 0x21F       DLC: 3  Data: 0x00 0x00 0x00
20:13:05.464 -> 1Standard ID: 0x2A0       DLC: 1  Data: 0x00
20:13:05.464 -> 1Standard ID: 0x168       DLC: 8  Data: 0x8C 0x00 0x00 0xA2 0x24 0x00 0x30 0x00
20:13:05.497 -> 1Standard ID: 0x036       DLC: 8  Data: 0x00 0x00 0x00 0x0F 0x01 0x00 0x00 0xA0
20:13:05.497 -> 1Standard ID: 0x167       DLC: 8  Data: 0x02 0x06 0xFF 0xFF 0x7F 0xFF 0x00 0x00
20:13:05.497 -> 1Standard ID: 0x336       DLC: 3  Data: 0x56 0x46 0x33
20:13:05.497 -> 1Standard ID: 0x0B6       DLC: 8  Data: 0x00 0x00 0x00 0x00 0x00 0x00 0x00 0xD0
20:13:05.497 -> 1Standard ID: 0x260       DLC: 8  Data: 0x03 0x03 0x92 0x40 0x00 0xD0 0x00 0x10
20:13:05.531 -> 1Standard ID: 0x217       DLC: 8  Data: 0xF2 0x40 0x00 0x00 0x80 0xFF 0xFF 0xFF
20:13:05.531 -> 1Standard ID: 0x1A1       DLC: 8  Data: 0x7F 0xFF 0x00 0xFF 0xFF 0xFF 0xFF 0xFF
20:13:05.531 -> 1Standard ID: 0x0E6       DLC: 6  Data: 0x91 0x00 0x00 0x00 0x00 0x6B
20:13:05.564 -> 1Standard ID: 0x0B6       DLC: 8  Data: 0x00 0x00 0x00 0x00 0x00 0x00 0x00 0xD0
20:13:05.564 -> 1Standard ID: 0x128       DLC: 8  Data: 0x31 0xC0 0x00 0x00 0x00 0x81 0xB0 0x01
20:13:05.564 -> 1Standard ID: 0x14C       DLC: 5  Data: 0x00 0x00 0x00 0x00 0x80
20:13:05.564 -> 1Standard ID: 0x21F       DLC: 3  Data: 0x00 0x00 0x00
20:13:05.564 -> 1Standard ID: 0x018       DLC: 5  Data: 0x80 0x00 0x00 0x00 0x00
20:13:05.597 -> 1Standard ID: 0x1A8       DLC: 8  Data: 0x00 0x00 0x00 0x00 0x00 0x10 0x01 0x29
20:13:05.597 -> 1Standard ID: 0x036       DLC: 8  Data: 0x00 0x00 0x00 0x0F 0x01 0x00 0x00 0xA0
20:13:05.597 -> 1Standard ID: 0x167       DLC: 8  Data: 0x02 0x06 0xFF 0xFF 0x7F 0xFF 0x00 0x00
20:13:05.597 -> 1Standard ID: 0x2A1       DLC: 7  Data: 0x12 0x04 0x43 0x00 0x63 0x0D 0xDA
20:13:05.597 -> 1Standard ID: 0x0B6       DLC: 8  Data: 0x00 0x00 0x00 0x00 0x00 0x00 0x00 0xD0
20:13:05.630 -> 1Standard ID: 0x227       DLC: 4  Data: 0x00 0x00 0x00 0x00
20:13:05.630 -> 1Standard ID: 0x217       DLC: 8  Data: 0xF2 0x40 0x00 0x00 0x80 0xFF 0xFF 0xFF
20:13:05.630 -> 1Standard ID: 0x0E6       DLC: 6  Data: 0x91 0x00 0x00 0x00 0x00 0x6B
20:13:05.630 -> 1Standard ID: 0x128       DLC: 8  Data: 0x01 0x00 0x00 0x00 0x00 0x80 0xB0 0x01
20:13:05.663 -> 1Standard ID: 0x168       DLC: 8  Data: 0x00 0x00 0x00 0x00 0x00 0x00 0x00 0x00
20:13:05.663 -> 1Standard ID: 0x0F6       DLC: 8  Data: 0x80 0x5E 0x10 0xF2 0xCA 0x6C 0x6C 0x10
20:13:05.663 -> 1Standard ID: 0x14C       DLC: 5  Data: 0x00 0x00 0x00 0x00 0x80
20:13:05.663 -> 1Standard ID: 0x0B6       DLC: 8  Data: 0x00 0x00 0x00 0x00 0x00 0x00 0x00 0xD0
20:13:05.663 -> 1Standard ID: 0x21F       DLC: 3  Data: 0x00 0x00 0x00
20:13:05.697 -> 1Standard ID: 0x168       DLC: 8  Data: 0x00 0x00 0x00 0x00 0x00 0x00 0x00 0x00
20:13:05.697 -> 1Standard ID: 0x036       DLC: 8  Data: 0x00 0x00 0x00 0x0F 0x01 0x00 0x00 0xA0
20:13:05.697 -> 1Standard ID: 0x217       DLC: 8  Data: 0xF2 0x80 0x00 0x00 0x80 0xFF 0xFF 0xFF
20:13:05.697 -> 1Standard ID: 0x0B6       DLC: 8  Data: 0x00 0x00 0x00 0x00 0x00 0x00 0x00 0xD0
20:13:05.697 -> 1Standard ID: 0x161       DLC: 7  Data: 0x00 0x00 0x41 0x00 0x00 0x00 0x64
20:13:05.730 -> 1Standard ID: 0x167       DLC: 8  Data: 0x02 0x06 0xFF 0xFF 0x7F 0xFF 0x00 0x00
20:13:05.730 -> 1Standard ID: 0x167       DLC: 8  Data: 0x00 0x06 0xFF 0xFF 0x7F 0xFF 0x00 0x00
20:13:05.730 -> 1Standard ID: 0x1A1       DLC: 8  Data: 0x7F 0xFF 0x00 0xFF 0xFF 0xFF 0xFF 0xFF
20:13:05.730 -> 1Standard ID: 0x0E6       DLC: 6  Data: 0x91 0x00 0x00 0x00 0x00 0x6C
20:13:05.763 -> 1Standard ID: 0x0B6       DLC: 8  Data: 0x00 0x00 0x00 0x00 0x00 0x00 0x00 0xD0
20:13:05.763 -> 1Standard ID: 0x128       DLC: 8  Data: 0x01 0x00 0x00 0x00 0x00 0x80 0xB0 0x01
20:13:05.763 -> 1Standard ID: 0x14C       DLC: 5  Data: 0x00 0x00 0x00 0x00 0x80
20:13:05.763 -> 1Standard ID: 0x3A7       DLC: 8  Data: 0x10 0x00 0x00 0x03 0x66 0x00 0x36 0x05
20:13:05.763 -> 1Standard ID: 0x21F       DLC: 3  Data: 0x00 0x00 0x00
20:13:05.763 -> 1Standard ID: 0x018       DLC: 5  Data: 0x80 0x00 0x00 0x00 0x00
20:13:05.796 -> 1Standard ID: 0x1A8       DLC: 8  Data: 0x00 0x00 0x00 0x00 0x00 0x10 0x01 0x29
20:13:05.796 -> 1Standard ID: 0x036       DLC: 8  Data: 0x00 0x00 0x00 0x0F 0x01 0x00 0x00 0xA0
20:13:05.796 -> 1Standard ID: 0x217       DLC: 8  Data: 0xF2 0x80 0x00 0x00 0x80 0xFF 0xFF 0xFF
20:13:05.796 -> 1Standard ID: 0x0B6       DLC: 8  Data: 0x00 0x00 0x00 0x00 0x00 0x00 0x00 0xD0
20:13:05.830 -> 1Standard ID: 0x220       DLC: 2  Data: 0x00 0x00
20:13:05.830 -> 1Standard ID: 0x167       DLC: 8  Data: 0x00 0x06 0xFF 0xFF 0x7F 0xFF 0x00 0x00
20:13:05.830 -> 1Standard ID: 0x0E6       DLC: 6  Data: 0x91 0x00 0x00 0x00 0x00 0x6C
20:13:05.830 -> 1Standard ID: 0x0DF       DLC: 3  Data: 0x04 0x00 0x40
20:13:05.863 -> 1Standard ID: 0x525       DLC: 8  Data: 0x05 0x00 0x00 0x00 0x01 0x80 0x00 0x00
20:13:05.863 -> 1Standard ID: 0x512       DLC: 8  Data: 0x01 0x00 0x00 0x00 0x00 0x80 0x00 0x00
20:13:05.863 -> 1Standard ID: 0x14C       DLC: 5  Data: 0x00 0x00 0x00 0x00 0x80
20:13:05.863 -> 1Standard ID: 0x0B6       DLC: 8  Data: 0x00 0x00 0x00 0x00 0x00 0x00 0x00 0xD0
20:13:05.863 -> 1Standard ID: 0x21F       DLC: 3  Data: 0x00 0x00 0x00
20:13:05.896 -> 1Standard ID: 0x168       DLC: 8  Data: 0x00 0x00 0x00 0x00 0x00 0x00 0x00 0x00
20:13:05.896 -> 1Standard ID: 0x036       DLC: 8  Data: 0x00 0x00 0x00 0x0F 0x01 0x00 0x00 0xA0
20:13:05.896 -> 1Standard ID: 0x217       DLC: 8  Data: 0xF2 0x80 0x00 0x00 0x80 0xFF 0xFF 0xFF
20:13:05.896 -> 1Standard ID: 0x261       DLC: 7  Data: 0x22 0x27 0x0F 0x00 0x50 0x44 0x97
20:13:05.896 -> 1Standard ID: 0x0B6       DLC: 8  Data: 0x00 0x00 0x00 0x00 0x00 0x00 0x00 0xD0
20:13:05.929 -> 1Standard ID: 0x361       DLC: 6  Data: 0x01 0x00 0x00 0x60 0x10 0x08
20:13:05.929 -> 1Standard ID: 0x167       DLC: 8  Data: 0x00 0x06 0xFF 0xFF 0x7F 0xFF 0x00 0x00
20:13:05.929 -> 1Standard ID: 0x1A1       DLC: 8  Data: 0x7F 0xFF 0x00 0xFF 0xFF 0xFF 0xFF 0xFF
20:13:05.929 -> 1Standard ID: 0x3F6       DLC: 7  Data: 0x05 0x41 0x10 0xCE 0x00 0x84 0x01
20:13:05.929 -> 1Standard ID: 0x0E6       DLC: 6  Data: 0x91 0x00 0x00 0x00 0x00 0x6B
20:13:05.929 -> 1Standard ID: 0x15B       DLC: 8  Data: 0x05 0x00 0x00 0x00 0x00 0x00 0x00 0xF0
20:13:05.962 -> 1Standard ID: 0x0F6       DLC: 8  Data: 0x80 0x5E 0x10 0xF2 0xCA 0x6C 0x6C 0x10
20:13:05.962 -> 1Standard ID: 0x128       DLC: 8  Data: 0x01 0x00 0x00 0x00 0x00 0x80 0xB0 0x01
20:13:05.962 -> 1Standard ID: 0x14C       DLC: 5  Data: 0x00 0x00 0x00 0x00 0x80
20:13:05.962 -> 1Standard ID: 0x2A0       DLC: 1  Data: 0x00
20:13:05.962 -> 1Standard ID: 0x0B6       DLC: 8  Data: 0x00 0x00 0x00 0x00 0x00 0x00 0x00 0xD0
20:13:05.996 -> 1Standard ID: 0x21F       DLC: 3  Data: 0x00 0x00 0x00
20:13:05.996 -> 1Standard ID: 0x1A8       DLC: 8  Data: 0x00 0x00 0x00 0x00 0x00 0x10 0x01 0x29
20:13:05.996 -> 1Standard ID: 0x036       DLC: 8  Data: 0x00 0x00 0x00 0x0F 0x01 0x00 0x00 0xA0
20:13:05.996 -> 1Standard ID: 0x217       DLC: 8  Data: 0xF2 0x80 0x00 0x00 0x80 0xFF 0xFF 0xFF
20:13:05.996 -> 1Standard ID: 0x0B6       DLC: 8  Data: 0x00 0x00 0x00 0x00 0x00 0x00 0x00 0xD0
20:13:06.029 -> 1Standard ID: 0x260       DLC: 8  Data: 0x01 0x03 0x92 0x40 0x00 0xC0 0x00 0x10
20:13:06.029 -> 1Standard ID: 0x317       DLC: 8  Data: 0xF3 0x9D 0x92 0xCC 0xD8 0x00 0x86 0x02
20:13:06.029 -> 1Standard ID: 0x51F       DLC: 8  Data: 0x01 0x00 0x00 0x00 0x00 0x00 0x00 0x00
20:13:06.029 -> 1Standard ID: 0x018       DLC: 5  Data: 0x80 0x00 0x00 0x00 0x00
20:13:06.029 -> 1Standard ID: 0x0E6       DLC: 6  Data: 0x91 0x00 0x00 0x00 0x00 0x6C
20:13:06.062 -> 1Standard ID: 0x15B       DLC: 8  Data: 0x01 0x03 0x92 0x40 0x00 0xC0 0x00 0xF0
20:13:06.062 -> 1Standard ID: 0x0B6       DLC: 8  Data: 0x00 0x00 0x00 0x00 0x00 0x00 0x00 0xD0
20:13:06.062 -> 1Standard ID: 0x14C       DLC: 5  Data: 0x00 0x00 0x00 0x00 0x80
20:13:06.062 -> 1Standard ID: 0x21F       DLC: 3  Data: 0x00 0x00 0x00
20:13:06.062 -> 1Standard ID: 0x168       DLC: 8  Data: 0x00 0x00 0x00 0x00 0x00 0x00 0x00 0x00
20:13:06.095 -> 1Standard ID: 0x036       DLC: 8  Data: 0x00 0x00 0x00 0x0F 0x01 0x00 0x00 0xA0
20:13:06.095 -> 1Standard ID: 0x217       DLC: 8  Data: 0xF2 0x80 0x00 0x00 0x80 0xFF 0xFF 0xFF
20:13:06.095 -> 1Standard ID: 0x221       DLC: 7  Data: 0x00 0xFF 0xFF 0xFF 0xFF 0xFF 0xFF
20:13:06.095 -> 1Standard ID: 0x0B6       DLC: 8  Data: 0x00 0x00 0x00 0x00 0x00 0x00 0x00 0xD0
20:13:06.129 -> 1Standard ID: 0x227       DLC: 4  Data: 0x00 0x00 0x00 0x00
20:13:06.129 -> 1Standard ID: 0x167       DLC: 8  Data: 0x00 0x06 0xFF 0xFF 0x7F 0xFF 0x00 0x00
20:13:06.129 -> 1Standard ID: 0x1A1       DLC: 8  Data: 0x7F 0xFF 0x00 0xFF 0xFF 0xFF 0xFF 0xFF
20:13:06.162 -> 1Standard ID: 0x0B6       DLC: 8  Data: 0x00 0x00 0x00 0x00 0x00 0x00 0x00 0xD0
20:13:06.162 -> 1Standard ID: 0x128       DLC: 8  Data: 0x01 0x00 0x00 0x00 0x00 0x80 0xB0 0x01
20:13:06.162 -> 1Standard ID: 0x14C       DLC: 5  Data: 0x00 0x00 0x00 0x00 0x80
20:13:06.162 -> 1Standard ID: 0x21F       DLC: 3  Data: 0x00 0x00 0x00
20:13:06.195 -> 1Standard ID: 0x018       DLC: 5  Data: 0x80 0x00 0x00 0x00 0x00
20:13:06.195 -> 1Standard ID: 0x1A8       DLC: 8  Data: 0x00 0x00 0x00 0x00 0x00 0x10 0x01 0x29
20:13:06.195 -> 1Standard ID: 0x036       DLC: 8  Data: 0x00 0x00 0x00 0x0F 0x01 0x00 0x00 0xA0
20:13:06.195 -> 1Standard ID: 0x217       DLC: 8  Data: 0xF2 0x80 0x00 0x00 0x80 0xFF 0xFF 0xFF
20:13:06.195 -> 1Standard ID: 0x2B6       DLC: 8  Data: 0x33 0x34 0x30 0x32 0x38 0x39 0x33 0x37
20:13:06.228 -> 1Standard ID: 0x161       DLC: 7  Data: 0x00 0x00 0x41 0x00 0x00 0x00 0x64
20:13:06.228 -> 1Standard ID: 0x0B6       DLC: 8  Data: 0x00 0x00 0x00 0x00 0x00 0x00 0x00 0xD0
20:13:06.228 -> 1Standard ID: 0x167       DLC: 8  Data: 0x00 0x06 0xFF 0xFF 0x7F 0xFF 0x00 0x00
20:13:06.261 -> 1Standard ID: 0x0B6       DLC: 8  Data: 0x00 0x00 0x00 0x00 0x00 0x00 0x00 0xD0
20:13:06.261 -> 1Standard ID: 0x14C       DLC: 5  Data: 0x00 0x00 0x00 0x00 0x80
20:13:06.261 -> 1Standard ID: 0x3A7       DLC: 8  Data: 0x10 0x00 0x00 0x03 0x66 0x00 0x36 0x05
20:13:06.261 -> 1Standard ID: 0x21F       DLC: 3  Data: 0x00 0x00 0x00
20:13:06.294 -> 1Standard ID: 0x168       DLC: 8  Data: 0x00 0x00 0x00 0x00 0x00 0x00 0x00 0x00
20:13:06.294 -> 1Standard ID: 0x036       DLC: 8  Data: 0x00 0x00 0x00 0x0F 0x01 0x00 0x00 0xA0
20:13:06.294 -> 1Standard ID: 0x217       DLC: 8  Data: 0xF2 0x80 0x00 0x00 0x80 0xFF 0xFF 0xFF
20:13:06.294 -> 1Standard ID: 0x0B6       DLC: 8  Data: 0x00 0x00 0x00 0x00 0x00 0x00 0x00 0xD0
20:13:06.294 -> 1Standard ID: 0x220       DLC: 2  Data: 0x00 0x00
20:13:06.328 -> 1Standard ID: 0x167       DLC: 8  Data: 0x00 0x06 0xFF 0xFF 0x7F 0xFF 0x00 0x00
20:13:06.328 -> 1Standard ID: 0x1A1       DLC: 8  Data: 0x7F 0xFF 0x00 0xFF 0xFF 0xFF 0xFF 0xFF
20:13:06.328 -> 1Standard ID: 0x0DF       DLC: 3  Data: 0x04 0x00 0x40
20:13:06.361 -> 1Standard ID: 0x0B6       DLC: 8  Data: 0x00 0x00 0x00 0x00 0x00 0x00 0x00 0xD0
20:13:06.361 -> 1Standard ID: 0x128       DLC: 8  Data: 0x01 0x00 0x00 0x00 0x00 0x80 0xB0 0x01
20:13:06.361 -> 1Standard ID: 0x14C       DLC: 5  Data: 0x00 0x00 0x00 0x00 0x80
20:13:06.361 -> 1Standard ID: 0x21F       DLC: 3  Data: 0x00 0x00 0x00
20:13:06.361 -> 1Standard ID: 0x018       DLC: 5  Data: 0x80 0x00 0x00 0x00 0x00
20:13:06.394 -> 1Standard ID: 0x1A8       DLC: 8  Data: 0x00 0x00 0x00 0x00 0x00 0x10 0x01 0x29
20:13:06.394 -> 1Standard ID: 0x036       DLC: 8  Data: 0x00 0x00 0x00 0x0F 0x01 0x00 0x00 0xA0
20:13:06.394 -> 1Standard ID: 0x217       DLC: 8  Data: 0xF2 0x80 0x00 0x00 0x80 0xFF 0xFF 0xFF
20:13:06.394 -> 1Standard ID: 0x0B6       DLC: 8  Data: 0x00 0x00 0x00 0x00 0x00 0x00 0x00 0xD0
20:13:06.427 -> 1Standard ID: 0x361       DLC: 6  Data: 0x01 0x00 0x00 0x60 0x10 0x08
20:13:06.427 -> 1Standard ID: 0x167       DLC: 8  Data: 0x00 0x06 0xFF 0xFF 0x7F 0xFF 0x00 0x00
20:13:06.427 -> 1Standard ID: 0x0F6       DLC: 8  Data: 0x80 0x5E 0x10 0xF2 0xCA 0x6C 0x6C 0x10
20:13:06.461 -> 1Standard ID: 0x0B6       DLC: 8  Data: 0x00 0x00 0x00 0x00 0x00 0x00 0x00 0xD0
20:13:06.461 -> 1Standard ID: 0x14C       DLC: 5  Data: 0x00 0x00 0x00 0x00 0x80
20:13:06.461 -> 1Standard ID: 0x2A0       DLC: 1  Data: 0x00
20:13:06.461 -> 1Standard ID: 0x21F       DLC: 3  Data: 0x00 0x00 0x00
20:13:06.494 -> 1Standard ID: 0x168       DLC: 8  Data: 0x00 0x00 0x00 0x00 0x00 0x00 0x00 0x00
20:13:06.494 -> 1Standard ID: 0x036       DLC: 8  Data: 0x00 0x00 0x00 0x0F 0x01 0x00 0x00 0xA0
20:13:06.494 -> 1Standard ID: 0x217       DLC: 8  Data: 0xF2 0x80 0x00 0x00 0x80 0xFF 0xFF 0xFF
20:13:06.494 -> 1Standard ID: 0x336       DLC: 3  Data: 0x56 0x46 0x33
20:13:06.494 -> 1Standard ID: 0x0B6       DLC: 8  Data: 0x00 0x00 0x00 0x00 0x00 0x00 0x00 0xD0
20:13:06.494 -> 1Standard ID: 0x260       DLC: 8  Data: 0x02 0x03 0x92 0x40 0x00 0xD0 0x00 0x10
20:13:06.527 -> 1Standard ID: 0x167       DLC: 8  Data: 0x00 0x06 0xFF 0xFF 0x7F 0xFF 0x00 0x00
20:13:06.527 -> 1Standard ID: 0x1A1       DLC: 8  Data: 0x7F 0xFF 0x00 0xFF 0xFF 0xFF 0xFF 0xFF
20:13:06.527 -> 1Standard ID: 0x15B       DLC: 8  Data: 0x01 0x03 0x92 0x40 0x00 0xC0 0x00 0xF0
20:13:06.560 -> 1Standard ID: 0x0B6       DLC: 8  Data: 0x00 0x00 0x00 0x00 0x00 0x00 0x00 0xD0
20:13:06.560 -> 1Standard ID: 0x128       DLC: 8  Data: 0x01 0x00 0x00 0x00 0x00 0x80 0xB0 0x01
20:13:06.560 -> 1Standard ID: 0x14C       DLC: 5  Data: 0x00 0x00 0x00 0x00 0x80
20:13:06.560 -> 1Standard ID: 0x21F       DLC: 3  Data: 0x00 0x00 0x00
20:13:06.560 -> 1Standard ID: 0x018       DLC: 5  Data: 0x80 0x00 0x00 0x00 0x00
20:13:06.593 -> 1Standard ID: 0x1A8       DLC: 8  Data: 0x00 0x00 0x00 0x00 0x00 0x10 0x01 0x29
20:13:06.593 -> 1Standard ID: 0x036       DLC: 8  Data: 0x00 0x00 0x00 0x0F 0x01 0x00 0x00 0xA0
20:13:06.593 -> 1Standard ID: 0x217       DLC: 8  Data: 0xF2 0x80 0x00 0x00 0x80 0xFF 0xFF 0xFF
20:13:06.593 -> 1Standard ID: 0x2A1       DLC: 7  Data: 0x12 0x04 0x43 0x00 0x63 0x0D 0xDA
20:13:06.593 -> 1Standard ID: 0x0B6       DLC: 8  Data: 0x00 0x00 0x00 0x00 0x00 0x00 0x00 0xD0
20:13:06.627 -> 1Standard ID: 0x227       DLC: 4  Data: 0x00 0x00 0x00 0x00
20:13:06.627 -> 1Standard ID: 0x167       DLC: 8  Data: 0x00 0x06 0xFF 0xFF 0x7F 0xFF 0x00 0x00
20:13:06.660 -> 1Standard ID: 0x0B6       DLC: 8  Data: 0x00 0x00 0x00 0x00 0x00 0x00 0x00 0xD0
20:13:06.660 -> 1Standard ID: 0x14C       DLC: 5  Data: 0x00 0x00 0x00 0x00 0x80
20:13:06.693 -> 1Standard ID: 0x21F       DLC: 3  Data: 0x00 0x00 0x00
20:13:06.693 -> 1Standard ID: 0x168       DLC: 8  Data: 0x00 0x00 0x00 0x00 0x00 0x00 0x00 0x00
20:13:06.693 -> 1Standard ID: 0x036       DLC: 8  Data: 0x00 0x00 0x00 0x0F 0x01 0x00 0x00 0xA0
20:13:06.693 -> 1Standard ID: 0x217       DLC: 8  Data: 0xF2 0x80 0x00 0x00 0x80 0xFF 0xFF 0xFF
20:13:06.693 -> 1Standard ID: 0x0B6       DLC: 8  Data: 0x00 0x00 0x00 0x00 0x00 0x00 0x00 0xD0
20:13:06.726 -> 1Standard ID: 0x161       DLC: 7  Data: 0x00 0x00 0x41 0x00 0x00 0x00 0x64
20:13:06.726 -> 1Standard ID: 0x167       DLC: 8  Data: 0x00 0x06 0xFF 0xFF 0x7F 0xFF 0x00 0x00
20:13:06.726 -> 1Standard ID: 0x1A1       DLC: 8  Data: 0x7F 0xFF 0x00 0xFF 0xFF 0xFF 0xFF 0xFF
20:13:06.760 -> 1Standard ID: 0x0B6       DLC: 8  Data: 0x00 0x00 0x00 0x00 0x00 0x00 0x00 0xD0
20:13:06.760 -> 1Standard ID: 0x128       DLC: 8  Data: 0x01 0x00 0x00 0x00 0x00 0x80 0xB0 0x01
20:13:06.760 -> 1Standard ID: 0x14C       DLC: 5  Data: 0x00 0x00 0x00 0x00 0x80
20:13:06.760 -> 1Standard ID: 0x3A7       DLC: 8  Data: 0x10 0x00 0x00 0x03 0x66 0x00 0x36 0x05
20:13:06.793 -> 1Standard ID: 0x018       DLC: 5  Data: 0x80 0x00 0x00 0x00 0x00
20:13:06.793 -> 1Standard ID: 0x21F       DLC: 3  Data: 0x00 0x00 0x00
20:13:06.793 -> 1Standard ID: 0x1A8       DLC: 8  Data: 0x00 0x00 0x00 0x00 0x00 0x10 0x01 0x29
20:13:06.793 -> 1Standard ID: 0x217       DLC: 8  Data: 0xF2 0x80 0x00 0x00 0x80 0xFF 0xFF 0xFF
20:13:06.793 -> 1Standard ID: 0x036       DLC: 8  Data: 0x00 0x00 0x00 0x0F 0x01 0x00 0x00 0xA0
20:13:06.826 -> 1Standard ID: 0x0B6       DLC: 8  Data: 0x00 0x00 0x00 0x00 0x00 0x00 0x00 0xD0
20:13:06.826 -> 1Standard ID: 0x220       DLC: 2  Data: 0x00 0x00
20:13:06.826 -> 1Standard ID: 0x167       DLC: 8  Data: 0x00 0x06 0xFF 0xFF 0x7F 0xFF 0x00 0x00
20:13:06.859 -> 1Standard ID: 0x0DF       DLC: 3  Data: 0x04 0x00 0x40
20:13:06.859 -> 1Standard ID: 0x525       DLC: 8  Data: 0x05 0x00 0x00 0x00 0x01 0x80 0x00 0x00
20:13:06.859 -> 1Standard ID: 0x512       DLC: 8  Data: 0x01 0x00 0x00 0x00 0x00 0x80 0x00 0x00
20:13:06.859 -> 1Standard ID: 0x14C       DLC: 5  Data: 0x00 0x00 0x00 0x00 0x80
20:13:06.859 -> 1Standard ID: 0x0B6       DLC: 8  Data: 0x00 0x00 0x00 0x00 0x00 0x00 0x00 0xD0
20:13:06.859 -> 1Standard ID: 0x21F       DLC: 3  Data: 0x00 0x00 0x00
20:13:06.892 -> 1Standard ID: 0x168       DLC: 8  Data: 0x00 0x00 0x00 0x00 0x00 0x00 0x00 0x00
20:13:06.892 -> 1Standard ID: 0x036       DLC: 8  Data: 0x00 0x00 0x00 0x0F 0x01 0x00 0x00 0xA0
20:13:06.892 -> 1Standard ID: 0x217       DLC: 8  Data: 0xF2 0x80 0x00 0x00 0x80 0xFF 0xFF 0xFF
20:13:06.892 -> 1Standard ID: 0x261       DLC: 7  Data: 0x22 0x27 0x0F 0x00 0x50 0x44 0x97
20:13:06.892 -> 1Standard ID: 0x0B6       DLC: 8  Data: 0x00 0x00 0x00 0x00 0x00 0x00 0x00 0xD0
20:13:06.925 -> 1Standard ID: 0x361       DLC: 6  Data: 0x01 0x00 0x00 0x60 0x10 0x08
20:13:06.925 -> 1Standard ID: 0x167       DLC: 8  Data: 0x00 0x06 0xFF 0xFF 0x7F 0xFF 0x00 0x00
20:13:06.925 -> 1Standard ID: 0x1A1       DLC: 8  Data: 0x7F 0xFF 0x00 0xFF 0xFF 0xFF 0xFF 0xFF
20:13:06.925 -> 1Standard ID: 0x3F6       DLC: 7  Data: 0x05 0x41 0x20 0xCE 0x00 0x84 0x01
20:13:06.925 -> 1Standard ID: 0x0F6       DLC: 8  Data: 0x80 0x5E 0x10 0xF2 0xCA 0x6C 0x6C 0x10
20:13:06.959 -> 1Standard ID: 0x0B6       DLC: 8  Data: 0x00 0x00 0x00 0x00 0x00 0x00 0x00 0xD0
20:13:06.959 -> 1Standard ID: 0x128       DLC: 8  Data: 0x01 0x00 0x00 0x00 0x00 0x80 0xB0 0x01
20:13:06.959 -> 1Standard ID: 0x14C       DLC: 5  Data: 0x00 0x00 0x00 0x00 0x80
20:13:06.959 -> 1Standard ID: 0x2A0       DLC: 1  Data: 0x00
20:13:06.992 -> 1Standard ID: 0x018       DLC: 5  Data: 0x80 0x00 0x00 0x00 0x00
20:13:06.992 -> 1Standard ID: 0x21F       DLC: 3  Data: 0x00 0x00 0x00
20:13:06.992 -> 1Standard ID: 0x1A8       DLC: 8  Data: 0x00 0x00 0x00 0x00 0x00 0x10 0x01 0x29
20:13:06.992 -> 1Standard ID: 0x217       DLC: 8  Data: 0xF2 0x80 0x00 0x00 0x80 0xFF 0xFF 0xFF
20:13:06.992 -> 1Standard ID: 0x3B6       DLC: 6  Data: 0x57 0x43 0x4B 0x46 0x56 0x43
20:13:06.992 -> 1Standard ID: 0x0B6       DLC: 8  Data: 0x00 0x00 0x00 0x00 0x00 0x00 0x00 0xD0
20:13:07.025 -> 1Standard ID: 0x260       DLC: 8  Data: 0x03 0x03 0x92 0x40 0x00 0xD0 0x00 0x10
20:13:07.025 -> 1Standard ID: 0x317       DLC: 8  Data: 0xF3 0x9D 0x92 0xCC 0xD8 0x00 0x86 0x02
20:13:07.025 -> 1Standard ID: 0x167       DLC: 8  Data: 0x00 0x06 0xFF 0xFF 0x7F 0xFF 0x00 0x00
20:13:07.025 -> 1Standard ID: 0x51F       DLC: 8  Data: 0x01 0x00 0x00 0x00 0x00 0x00 0x00 0x00
20:13:07.058 -> 1Standard ID: 0x036       DLC: 8  Data: 0x00 0x00 0x00 0x0F 0x01 0x00 0x00 0xA0
20:13:07.058 -> 1Standard ID: 0x15B       DLC: 8  Data: 0x01 0x03 0x92 0x40 0x00 0xC0 0x00 0xF0
20:13:07.058 -> 1Standard ID: 0x0B6       DLC: 8  Data: 0x00 0x00 0x00 0x00 0x00 0x00 0x00 0xD0
20:13:07.058 -> 1Standard ID: 0x14C       DLC: 5  Data: 0x00 0x00 0x00 0x00 0x80
20:13:07.091 -> 1Standard ID: 0x21F       DLC: 3  Data: 0x00 0x00 0x00
20:13:07.091 -> 1Standard ID: 0x168       DLC: 8  Data: 0x00 0x00 0x00 0x00 0x00 0x00 0x00 0x00
20:13:07.091 -> 1Standard ID: 0x036       DLC: 8  Data: 0x00 0x00 0x00 0x0F 0x01 0x00 0x00 0xA0
20:13:07.091 -> 1Standard ID: 0x217       DLC: 8  Data: 0xF2 0x80 0x00 0x00 0x80 0xFF 0xFF 0xFF
20:13:07.091 -> 1Standard ID: 0x221       DLC: 7  Data: 0x00 0xFF 0xFF 0xFF 0xFF 0xFF 0xFF
20:13:07.125 -> 1Standard ID: 0x0B6       DLC: 8  Data: 0x00 0x00 0x00 0x00 0x00 0x00 0x00 0xD0
20:13:07.125 -> 1Standard ID: 0x227       DLC: 4  Data: 0x00 0x00 0x00 0x00
20:13:07.125 -> 1Standard ID: 0x167       DLC: 8  Data: 0x00 0x06 0xFF 0xFF 0x7F 0xFF 0x00 0x00
20:13:07.125 -> 1Standard ID: 0x1A1       DLC: 8  Data: 0x7F 0xFF 0x00 0xFF 0xFF 0xFF 0xFF 0xFF
20:13:07.158 -> 1Standard ID: 0x0B6       DLC: 8  Data: 0x00 0x00 0x00 0x00 0x00 0x00 0x00 0xD0
20:13:07.158 -> 1Standard ID: 0x128       DLC: 8  Data: 0x01 0x00 0x00 0x00 0x00 0x80 0xB0 0x01
20:13:07.158 -> 1Standard ID: 0x14C       DLC: 5  Data: 0x00 0x00 0x00 0x00 0x80
20:13:07.191 -> 1Standard ID: 0x018       DLC: 5  Data: 0x80 0x00 0x00 0x00 0x00
20:13:07.191 -> 1Standard ID: 0x21F       DLC: 3  Data: 0x00 0x00 0x00
20:13:07.191 -> 1Standard ID: 0x1A8       DLC: 8  Data: 0x00 0x00 0x00 0x00 0x00 0x10 0x01 0x29
20:13:07.191 -> 1Standard ID: 0x217       DLC: 8  Data: 0xF2 0x80 0x00 0x00 0x80 0xFF 0xFF 0xFF
20:13:07.191 -> 1Standard ID: 0x2B6       DLC: 8  Data: 0x33 0x34 0x30 0x32 0x38 0x39 0x33 0x37
20:13:07.191 -> 1Standard ID: 0x0B6       DLC: 8  Data: 0x00 0x00 0x00 0x00 0x00 0x00 0x00 0xD0
20:13:07.224 -> 1Standard ID: 0x161       DLC: 7  Data: 0x00 0x00 0x41 0x00 0x00 0x00 0x64
20:13:07.224 -> 1Standard ID: 0x167       DLC: 8  Data: 0x00 0x06 0xFF 0xFF 0x7F 0xFF 0x00 0x00
20:13:07.224 -> 1Standard ID: 0x036       DLC: 8  Data: 0x00 0x00 0x00 0x0F 0x01 0x00 0x00 0xA0
20:13:07.257 -> 1Standard ID: 0x0B6       DLC: 8  Data: 0x00 0x00 0x00 0x00 0x00 0x00 0x00 0xD0
20:13:07.257 -> 1Standard ID: 0x14C       DLC: 5  Data: 0x00 0x00 0x00 0x00 0x80
20:13:07.257 -> 1Standard ID: 0x3A7       DLC: 8  Data: 0x10 0x00 0x00 0x03 0x66 0x00 0x36 0x05
20:13:07.290 -> 1Standard ID: 0x21F       DLC: 3  Data: 0x00 0x00 0x00
20:13:07.290 -> 1Standard ID: 0x168       DLC: 8  Data: 0x00 0x00 0x00 0x00 0x00 0x00 0x00 0x00
20:13:07.290 -> 1Standard ID: 0x036       DLC: 8  Data: 0x00 0x00 0x00 0x0F 0x01 0x00 0x00 0xA0
20:13:07.290 -> 1Standard ID: 0x217       DLC: 8  Data: 0xF2 0x80 0x00 0x00 0x80 0xFF 0xFF 0xFF
20:13:07.290 -> 1Standard ID: 0x0B6       DLC: 8  Data: 0x00 0x00 0x00 0x00 0x00 0x00 0x00 0xD0
20:13:07.323 -> 1Standard ID: 0x220       DLC: 2  Data: 0x00 0x00
20:13:07.323 -> 1Standard ID: 0x167       DLC: 8  Data: 0x00 0x06 0xFF 0xFF 0x7F 0xFF 0x00 0x00
20:13:07.323 -> 1Standard ID: 0x1A1       DLC: 8  Data: 0x7F 0xFF 0x00 0xFF 0xFF 0xFF 0xFF 0xFF
20:13:07.357 -> 1Standard ID: 0x0DF       DLC: 3  Data: 0x04 0x00 0x40
20:13:07.357 -> 1Standard ID: 0x0B6       DLC: 8  Data: 0x00 0x00 0x00 0x00 0x00 0x00 0x00 0xD0
20:13:07.357 -> 1Standard ID: 0x128       DLC: 8  Data: 0x01 0x00 0x00 0x00 0x00 0x80 0xB0 0x01
20:13:07.357 -> 1Standard ID: 0x14C       DLC: 5  Data: 0x00 0x00 0x00 0x00 0x80
20:13:07.390 -> 1Standard ID: 0x018       DLC: 5  Data: 0x80 0x00 0x00 0x00 0x00
20:13:07.390 -> 1Standard ID: 0x21F       DLC: 3  Data: 0x00 0x00 0x00
20:13:07.390 -> 1Standard ID: 0x1A8       DLC: 8  Data: 0x00 0x00 0x00 0x00 0x00 0x10 0x01 0x29
20:13:07.390 -> 1Standard ID: 0x217       DLC: 8  Data: 0xF2 0x80 0x00 0x00 0x80 0xFF 0xFF 0xFF
20:13:07.390 -> 1Standard ID: 0x036       DLC: 8  Data: 0x00 0x00 0x00 0x0F 0x01 0x00 0x00 0xA0
20:13:07.423 -> 1Standard ID: 0x0B6       DLC: 8  Data: 0x00 0x00 0x00 0x00 0x00 0x00 0x00 0xD0
20:13:07.423 -> 1Standard ID: 0x361       DLC: 6  Data: 0x01 0x00 0x00 0x60 0x10 0x08
20:13:07.423 -> 1Standard ID: 0x167       DLC: 8  Data: 0x00 0x06 0xFF 0xFF 0x7F 0xFF 0x00 0x00
20:13:07.456 -> 1Standard ID: 0x0F6       DLC: 8  Data: 0x80 0x5E 0x10 0xF2 0xCA 0x6C 0x6C 0x10
20:13:07.456 -> 1Standard ID: 0x0B6       DLC: 8  Data: 0x00 0x00 0x00 0x00 0x00 0x00 0x00 0xD0
20:13:07.456 -> 1Standard ID: 0x14C       DLC: 5  Data: 0x00 0x00 0x00 0x00 0x80
20:13:07.456 -> 1Standard ID: 0x2A0       DLC: 1  Data: 0x00
20:13:07.490 -> 1Standard ID: 0x21F       DLC: 3  Data: 0x00 0x00 0x00
20:13:07.490 -> 1Standard ID: 0x168       DLC: 8  Data: 0x00 0x00 0x00 0x00 0x00 0x00 0x00 0x00
20:13:07.490 -> 1Standard ID: 0x036       DLC: 8  Data: 0x00 0x00 0x00 0x0F 0x01 0x00 0x00 0xA0
20:13:07.490 -> 1Standard ID: 0x217       DLC: 8  Data: 0xF2 0x80 0x00 0x00 0x80 0xFF 0xFF 0xFF
20:13:07.490 -> 1Standard ID: 0x336       DLC: 3  Data: 0x56 0x46 0x33
20:13:07.523 -> 1Standard ID: 0x260       DLC: 8  Data: 0x01 0x03 0x92 0x40 0x00 0xC0 0x00 0x10
20:13:07.523 -> 1Standard ID: 0x0B6       DLC: 8  Data: 0x00 0x00 0x00 0x00 0x00 0x00 0x00 0xD0
20:13:07.523 -> 1Standard ID: 0x167       DLC: 8  Data: 0x00 0x06 0xFF 0xFF 0x7F 0xFF 0x00 0x00
20:13:07.523 -> 1Standard ID: 0x1A1       DLC: 8  Data: 0x7F 0xFF 0x00 0xFF 0xFF 0xFF 0xFF 0xFF
20:13:07.523 -> 1Standard ID: 0x15B       DLC: 8  Data: 0x01 0x03 0x92 0x40 0x00 0xC0 0x00 0xF0
20:13:07.556 -> 1Standard ID: 0x0B6       DLC: 8  Data: 0x00 0x00 0x00 0x00 0x00 0x00 0x00 0xD0
20:13:07.556 -> 1Standard ID: 0x128       DLC: 8  Data: 0x01 0x00 0x00 0x00 0x00 0x80 0xB0 0x01
20:13:07.556 -> 1Standard ID: 0x14C       DLC: 5  Data: 0x00 0x00 0x00 0x00 0x80
20:13:07.556 -> 1Standard ID: 0x018       DLC: 5  Data: 0x80 0x00 0x00 0x00 0x00
20:13:07.589 -> 1Standard ID: 0x21F       DLC: 3  Data: 0x00 0x00 0x00
20:13:07.589 -> 1Standard ID: 0x1A8       DLC: 8  Data: 0x00 0x00 0x00 0x00 0x00 0x10 0x01 0x29
20:13:07.589 -> 1Standard ID: 0x036       DLC: 8  Data: 0x00 0x00 0x00 0x0F 0x01 0x00 0x00 0xA0
20:13:07.589 -> 1Standard ID: 0x217       DLC: 8  Data: 0xF2 0x80 0x00 0x00 0x80 0xFF 0xFF 0xFF
20:13:07.589 -> 1Standard ID: 0x2A1       DLC: 7  Data: 0x12 0x04 0x43 0x00 0x63 0x0D 0xDA
20:13:07.622 -> 1Standard ID: 0x0B6       DLC: 8  Data: 0x00 0x00 0x00 0x00 0x00 0x00 0x00 0xD0
20:13:07.622 -> 1Standard ID: 0x227       DLC: 4  Data: 0x00 0x00 0x00 0x00
20:13:07.622 -> 1Standard ID: 0x167       DLC: 8  Data: 0x00 0x06 0xFF 0xFF 0x7F 0xFF 0x00 0x00
20:13:07.656 -> 1Standard ID: 0x0B6       DLC: 8  Data: 0x00 0x00 0x00 0x00 0x00 0x00 0x00 0xD0
20:13:07.656 -> 1Standard ID: 0x14C       DLC: 5  Data: 0x00 0x00 0x00 0x00 0x80
20:13:07.689 -> 1Standard ID: 0x21F       DLC: 3  Data: 0x00 0x00 0x00
20:13:07.689 -> 1Standard ID: 0x168       DLC: 8  Data: 0x00 0x00 0x00 0x00 0x00 0x00 0x00 0x00
20:13:07.689 -> 1Standard ID: 0x036       DLC: 8  Data: 0x00 0x00 0x00 0x0F 0x01 0x00 0x00 0xA0
20:13:07.689 -> 1Standard ID: 0x217       DLC: 8  Data: 0xF2 0x80 0x00 0x00 0x80 0xFF 0xFF 0xFF
20:13:07.689 -> 1Standard ID: 0x0B6       DLC: 8  Data: 0x00 0x00 0x00 0x00 0x00 0x00 0x00 0xD0
20:13:07.722 -> 1Standard ID: 0x161       DLC: 7  Data: 0x00 0x00 0x41 0x00 0x00 0x00 0x64
20:13:07.722 -> 1Standard ID: 0x167       DLC: 8  Data: 0x00 0x06 0xFF 0xFF 0x7F 0xFF 0x00 0x00
20:13:07.722 -> 1Standard ID: 0x1A1       DLC: 8  Data: 0x7F 0xFF 0x00 0xFF 0xFF 0xFF 0xFF 0xFF
20:13:07.755 -> 1Standard ID: 0x0B6       DLC: 8  Data: 0x00 0x00 0x00 0x00 0x00 0x00 0x00 0xD0
20:13:07.755 -> 1Standard ID: 0x128       DLC: 8  Data: 0x01 0x00 0x00 0x00 0x00 0x80 0xB0 0x01
20:13:07.755 -> 1Standard ID: 0x14C       DLC: 5  Data: 0x00 0x00 0x00 0x00 0x80
20:13:07.755 -> 1Standard ID: 0x3A7       DLC: 8  Data: 0x10 0x00 0x00 0x03 0x66 0x00 0x36 0x05
20:13:07.789 -> 1Standard ID: 0x018       DLC: 5  Data: 0x80 0x00 0x00 0x00 0x00
20:13:07.789 -> 1Standard ID: 0x21F       DLC: 3  Data: 0x00 0x00 0x00
20:13:07.789 -> 1Standard ID: 0x1A8       DLC: 8  Data: 0x00 0x00 0x00 0x00 0x00 0x10 0x01 0x29
20:13:07.789 -> 1Standard ID: 0x036       DLC: 8  Data: 0x00 0x00 0x00 0x0F 0x01 0x00 0x00 0xA0
20:13:07.789 -> 1Standard ID: 0x217       DLC: 8  Data: 0xF2 0x80 0x00 0x00 0x80 0xFF 0xFF 0xFF
20:13:07.822 -> 1Standard ID: 0x0B6       DLC: 8  Data: 0x00 0x00 0x00 0x00 0x00 0x00 0x00 0xD0
20:13:07.822 -> 1Standard ID: 0x220       DLC: 2  Data: 0x00 0x00
20:13:07.822 -> 1Standard ID: 0x167       DLC: 8  Data: 0x00 0x06 0xFF 0xFF 0x7F 0xFF 0x00 0x00
20:13:07.855 -> 1Standard ID: 0x0DF       DLC: 3  Data: 0x04 0x00 0x40
20:13:07.855 -> 1Standard ID: 0x525       DLC: 8  Data: 0x05 0x00 0x00 0x00 0x01 0x80 0x00 0x00
20:13:07.855 -> 1Standard ID: 0x512       DLC: 8  Data: 0x01 0x00 0x00 0x00 0x00 0x80 0x00 0x00
20:13:07.855 -> 1Standard ID: 0x14C       DLC: 5  Data: 0x00 0x00 0x00 0x00 0x80
20:13:07.855 -> 1Standard ID: 0x0B6       DLC: 8  Data: 0x00 0x00 0x00 0x00 0x00 0x00 0x00 0xD0
20:13:07.888 -> 1Standard ID: 0x168       DLC: 8  Data: 0x00 0x00 0x00 0x00 0x00 0x00 0x00 0x00
20:13:07.888 -> 1Standard ID: 0x21F       DLC: 3  Data: 0x00 0x00 0x00
20:13:07.888 -> 1Standard ID: 0x036       DLC: 8  Data: 0x00 0x00 0x00 0x0F 0x01 0x00 0x00 0xA0
20:13:07.888 -> 1Standard ID: 0x217       DLC: 8  Data: 0xF2 0x80 0x00 0x00 0x80 0xFF 0xFF 0xFF
20:13:07.888 -> 1Standard ID: 0x261       DLC: 7  Data: 0x22 0x27 0x0F 0x00 0x50 0x44 0x97
20:13:07.930 -> 1Standard ID: 0x0B6       DLC: 8  Data: 0x00 0x00 0x00 0x00 0x00 0x00 0x00 0xD0
20:13:07.930 -> 1Standard ID: 0x361       DLC: 6  Data: 0x01 0x00 0x00 0x60 0x10 0x08
20:13:07.930 -> 1Standard ID: 0x167       DLC: 8  Data: 0x00 0x06 0xFF 0xFF 0x7F 0xFF 0x00 0x00
20:13:07.930 -> 1Standard ID: 0x1A1       DLC: 8  Data: 0x7F 0xFF 0x00 0xFF 0xFF 0xFF 0xFF 0xFF
20:13:07.930 -> 1Standard ID: 0x3F6       DLC: 7  Data: 0x05 0x41 0x30 0xCE 0x00 0x84 0x01
20:13:07.954 -> 1Standard ID: 0x0F6       DLC: 8  Data: 0x80 0x5E 0x10 0xF2 0xCA 0x6C 0x6C 0x10
20:13:07.954 -> 1Standard ID: 0x0B6       DLC: 8  Data: 0x00 0x00 0x00 0x00 0x00 0x00 0x00 0xD0
20:13:07.954 -> 1Standard ID: 0x128       DLC: 8  Data: 0x01 0x00 0x00 0x00 0x00 0x80 0xB0 0x01
20:13:07.954 -> 1Standard ID: 0x14C       DLC: 5  Data: 0x00 0x00 0x00 0x00 0x80
20:13:07.954 -> 1Standard ID: 0x2A0       DLC: 1  Data: 0x00
20:13:07.987 -> 1Standard ID: 0x018       DLC: 5  Data: 0x80 0x00 0x00 0x00 0x00
20:13:07.987 -> 1Standard ID: 0x1A8       DLC: 8  Data: 0x00 0x00 0x00 0x00 0x00 0x10 0x01 0x29
20:13:07.987 -> 1Standard ID: 0x21F       DLC: 3  Data: 0x00 0x00 0x00
20:13:07.987 -> 1Standard ID: 0x036       DLC: 8  Data: 0x00 0x00 0x00 0x0F 0x01 0x00 0x00 0xA0
20:13:07.987 -> 1Standard ID: 0x3B6       DLC: 6  Data: 0x57 0x43 0x4B 0x46 0x56 0x43
20:13:08.021 -> 1Standard ID: 0x0B6       DLC: 8  Data: 0x00 0x00 0x00 0x00 0x00 0x00 0x00 0xD0
20:13:08.021 -> 1Standard ID: 0x260       DLC: 8  Data: 0x02 0x03 0x92 0x40 0x00 0xD0 0x00 0x10
20:13:08.021 -> 1Standard ID: 0x317       DLC: 8  Data: 0xF3 0x9D 0x92 0xCC 0xD8 0x00 0x86 0x02
20:13:08.021 -> 1Standard ID: 0x167       DLC: 8  Data: 0x00 0x06 0xFF 0xFF 0x7F 0xFF 0x00 0x00
20:13:08.021 -> 1Standard ID: 0x51F       DLC: 8  Data: 0x01 0x00 0x00 0x00 0x00 0x00 0x00 0x00
20:13:08.054 -> 1Standard ID: 0x217       DLC: 8  Data: 0xF2 0x80 0x00 0x00 0x80 0xFF 0xFF 0xFF
20:13:08.054 -> 1Standard ID: 0x15B       DLC: 8  Data: 0x01 0x03 0x92 0x40 0x00 0xC0 0x00 0xF0
20:13:08.054 -> 1Standard ID: 0x0B6       DLC: 8  Data: 0x00 0x00 0x00 0x00 0x00 0x00 0x00 0xD0
20:13:08.054 -> 1Standard ID: 0x14C       DLC: 5  Data: 0x00 0x00 0x00 0x00 0x80
20:13:08.087 -> 1Standard ID: 0x168       DLC: 8  Data: 0x00 0x00 0x00 0x00 0x00 0x00 0x00 0x00
20:13:08.087 -> 1Standard ID: 0x21F       DLC: 3  Data: 0x00 0x00 0x00
20:13:08.087 -> 1Standard ID: 0x036       DLC: 8  Data: 0x00 0x00 0x00 0x0F 0x01 0x00 0x00 0xA0
20:13:08.087 -> 1Standard ID: 0x217       DLC: 8  Data: 0xF2 0x80 0x00 0x00 0x80 0xFF 0xFF 0xFF
20:13:08.120 -> 1Standard ID: 0x221       DLC: 7  Data: 0x00 0xFF 0xFF 0xFF 0xFF 0xFF 0xFF
20:13:08.120 -> 1Standard ID: 0x0B6       DLC: 8  Data: 0x00 0x00 0x00 0x00 0x00 0x00 0x00 0xD0
20:13:08.120 -> 1Standard ID: 0x227       DLC: 4  Data: 0x00 0x00 0x00 0x00
20:13:08.120 -> 1Standard ID: 0x167       DLC: 8  Data: 0x00 0x06 0xFF 0xFF 0x7F 0xFF 0x00 0x00
20:13:08.120 -> 1Standard ID: 0x1A1       DLC: 8  Data: 0x7F 0xFF 0x00 0xFF 0xFF 0xFF 0xFF 0xFF
20:13:08.153 -> 1Standard ID: 0x0B6       DLC: 8  Data: 0x00 0x00 0x00 0x00 0x00 0x00 0x00 0xD0
20:13:08.153 -> 1Standard ID: 0x128       DLC: 8  Data: 0x01 0x00 0x00 0x00 0x00 0x80 0xB0 0x01
20:13:08.153 -> 1Standard ID: 0x14C       DLC: 5  Data: 0x00 0x00 0x00 0x00 0x80
20:13:08.187 -> 1Standard ID: 0x018       DLC: 5  Data: 0x80 0x00 0x00 0x00 0x00
20:13:08.187 -> 1Standard ID: 0x1A8       DLC: 8  Data: 0x00 0x00 0x00 0x00 0x00 0x10 0x01 0x29
20:13:08.187 -> 1Standard ID: 0x21F       DLC: 3  Data: 0x00 0x00 0x00
20:13:08.187 -> 1Standard ID: 0x036       DLC: 8  Data: 0x00 0x00 0x00 0x0F 0x01 0x00 0x00 0xA0
20:13:08.187 -> 1Standard ID: 0x217       DLC: 8  Data: 0xF2 0x80 0x00 0x00 0x80 0xFF 0xFF 0xFF
20:13:08.187 -> 1Standard ID: 0x2B6       DLC: 8  Data: 0x33 0x34 0x30 0x32 0x38 0x39 0x33 0x37
20:13:08.220 -> 1Standard ID: 0x161       DLC: 7  Data: 0x00 0x00 0x41 0x00 0x00 0x00 0x64
20:13:08.220 -> 1Standard ID: 0x0B6       DLC: 8  Data: 0x00 0x00 0x00 0x00 0x00 0x00 0x00 0xD0
20:13:08.220 -> 1Standard ID: 0x167       DLC: 8  Data: 0x00 0x06 0xFF 0xFF 0x7F 0xFF 0x00 0x00
20:13:08.253 -> 1Standard ID: 0x0B6       DLC: 8  Data: 0x00 0x00 0x00 0x00 0x00 0x00 0x00 0xD0
20:13:08.253 -> 1Standard ID: 0x14C       DLC: 5  Data: 0x00 0x00 0x00 0x00 0x80
20:13:08.253 -> 1Standard ID: 0x3A7       DLC: 8  Data: 0x10 0x00 0x00 0x03 0x66 0x00 0x36 0x05
20:13:08.286 -> 1Standard ID: 0x168       DLC: 8  Data: 0x00 0x00 0x00 0x00 0x00 0x00 0x00 0x00
20:13:08.286 -> 1Standard ID: 0x21F       DLC: 3  Data: 0x00 0x00 0x00
20:13:08.286 -> 1Standard ID: 0x036       DLC: 8  Data: 0x00 0x00 0x00 0x0F 0x01 0x00 0x00 0xA0
20:13:08.286 -> 1Standard ID: 0x217       DLC: 8  Data: 0xF2 0x80 0x00 0x00 0x80 0xFF 0xFF 0xFF
20:13:08.319 -> 1Standard ID: 0x0B6       DLC: 8  Data: 0x00 0x00 0x00 0x00 0x00 0x00 0x00 0xD0
20:13:08.319 -> 1Standard ID: 0x220       DLC: 2  Data: 0x00 0x00
20:13:08.319 -> 1Standard ID: 0x167       DLC: 8  Data: 0x00 0x06 0xFF 0xFF 0x7F 0xFF 0x00 0x00
20:13:08.319 -> 1Standard ID: 0x1A1       DLC: 8  Data: 0x7F 0xFF 0x00 0xFF 0xFF 0xFF 0xFF 0xFF
20:13:08.352 -> 1Standard ID: 0x0DF       DLC: 3  Data: 0x04 0x00 0x40
20:13:08.352 -> 1Standard ID: 0x0B6       DLC: 8  Data: 0x00 0x00 0x00 0x00 0x00 0x00 0x00 0xD0
20:13:08.352 -> 1Standard ID: 0x128       DLC: 8  Data: 0x01 0x00 0x00 0x00 0x00 0x80 0xB0 0x01
20:13:08.352 -> 1Standard ID: 0x14C       DLC: 5  Data: 0x00 0x00 0x00 0x00 0x80
20:13:08.386 -> 1Standard ID: 0x018       DLC: 5  Data: 0x80 0x00 0x00 0x00 0x00
20:13:08.386 -> 1Standard ID: 0x1A8       DLC: 8  Data: 0x00 0x00 0x00 0x00 0x00 0x10 0x01 0x29
20:13:08.386 -> 1Standard ID: 0x21F       DLC: 3  Data: 0x00 0x00 0x00
20:13:08.386 -> 1Standard ID: 0x036       DLC: 8  Data: 0x00 0x00 0x00 0x0F 0x01 0x00 0x00 0xA0
20:13:08.386 -> 1Standard ID: 0x217       DLC: 8  Data: 0xF2 0x80 0x00 0x00 0x80 0xFF 0xFF 0xFF
20:13:08.419 -> 1Standard ID: 0x0B6       DLC: 8  Data: 0x00 0x00 0x00 0x00 0x00 0x00 0x00 0xD0
20:13:08.419 -> 1Standard ID: 0x361       DLC: 6  Data: 0x01 0x00 0x00 0x60 0x10 0x08
20:13:08.419 -> 1Standard ID: 0x167       DLC: 8  Data: 0x00 0x06 0xFF 0xFF 0x7F 0xFF 0x00 0x00
20:13:08.452 -> 1Standard ID: 0x0F6       DLC: 8  Data: 0x80 0x5E 0x10 0xF2 0xCA 0x6C 0x6C 0x10
20:13:08.452 -> 1Standard ID: 0x0B6       DLC: 8  Data: 0x00 0x00 0x00 0x00 0x00 0x00 0x00 0xD0
20:13:08.452 -> 1Standard ID: 0x14C       DLC: 5  Data: 0x00 0x00 0x00 0x00 0x80
20:13:08.452 -> 1Standard ID: 0x2A0       DLC: 1  Data: 0x00
20:13:08.485 -> 1Standard ID: 0x168       DLC: 8  Data: 0x00 0x00 0x00 0x00 0x00 0x00 0x00 0x00
20:13:08.485 -> 1Standard ID: 0x21F       DLC: 3  Data: 0x00 0x00 0x00
20:13:08.485 -> 1Standard ID: 0x036       DLC: 8  Data: 0x00 0x00 0x00 0x0F 0x01 0x00 0x00 0xA0
20:13:08.485 -> 1Standard ID: 0x217       DLC: 8  Data: 0xF2 0x80 0x00 0x00 0x80 0xFF 0xFF 0xFF
20:13:08.485 -> 1Standard ID: 0x336       DLC: 3  Data: 0x56 0x46 0x33
20:13:08.519 -> 1Standard ID: 0x260       DLC: 8  Data: 0x03 0x03 0x92 0x40 0x00 0xD0 0x00 0x10
20:13:08.519 -> 1Standard ID: 0x0B6       DLC: 8  Data: 0x00 0x00 0x00 0x00 0x00 0x00 0x00 0xD0
20:13:08.519 -> 1Standard ID: 0x167       DLC: 8  Data: 0x00 0x06 0xFF 0xFF 0x7F 0xFF 0x00 0x00
20:13:08.519 -> 1Standard ID: 0x1A1       DLC: 8  Data: 0x7F 0xFF 0x00 0xFF 0xFF 0xFF 0xFF 0xFF
20:13:08.552 -> 1Standard ID: 0x15B       DLC: 8  Data: 0x01 0x03 0x92 0x40 0x00 0xC0 0x00 0xF0
20:13:08.552 -> 1Standard ID: 0x0B6       DLC: 8  Data: 0x00 0x00 0x00 0x00 0x00 0x00 0x00 0xD0
20:13:08.552 -> 1Standard ID: 0x128       DLC: 8  Data: 0x01 0x00 0x00 0x00 0x00 0x80 0xB0 0x01
20:13:08.552 -> 1Standard ID: 0x14C       DLC: 5  Data: 0x00 0x00 0x00 0x00 0x80
20:13:08.585 -> 1Standard ID: 0x018       DLC: 5  Data: 0x80 0x00 0x00 0x00 0x00
20:13:08.585 -> 1Standard ID: 0x1A8       DLC: 8  Data: 0x00 0x00 0x00 0x00 0x00 0x10 0x01 0x29
20:13:08.585 -> 1Standard ID: 0x21F       DLC: 3  Data: 0x00 0x00 0x00
20:13:08.585 -> 1Standard ID: 0x036       DLC: 8  Data: 0x00 0x00 0x00 0x0F 0x01 0x00 0x00 0xA0
20:13:08.585 -> 1Standard ID: 0x217       DLC: 8  Data: 0xF2 0x80 0x00 0x00 0x80 0xFF 0xFF 0xFF
20:13:08.618 -> 1Standard ID: 0x2A1       DLC: 7  Data: 0x12 0x04 0x43 0x00 0x63 0x0D 0xDA
20:13:08.618 -> 1Standard ID: 0x0B6       DLC: 8  Data: 0x00 0x00 0x00 0x00 0x00 0x00 0x00 0xD0
20:13:08.618 -> 1Standard ID: 0x227       DLC: 4  Data: 0x00 0x00 0x00 0x00
20:13:08.618 -> 1Standard ID: 0x167       DLC: 8  Data: 0x00 0x06 0xFF 0xFF 0x7F 0xFF 0x00 0x00
20:13:08.651 -> 1Standard ID: 0x0B6       DLC: 8  Data: 0x00 0x00 0x00 0x00 0x00 0x00 0x00 0xD0
20:13:08.651 -> 1Standard ID: 0x14C       DLC: 5  Data: 0x00 0x00 0x00 0x00 0x80
20:13:08.685 -> 1Standard ID: 0x168       DLC: 8  Data: 0x00 0x00 0x00 0x00 0x00 0x00 0x00 0x00
20:13:08.685 -> 1Standard ID: 0x21F       DLC: 3  Data: 0x00 0x00 0x00
20:13:08.685 -> 1Standard ID: 0x036       DLC: 8  Data: 0x00 0x00 0x00 0x0F 0x01 0x00 0x00 0xA0
20:13:08.685 -> 1Standard ID: 0x217       DLC: 8  Data: 0xF2 0x80 0x00 0x00 0x80 0xFF 0xFF 0xFF
20:13:08.718 -> 1Standard ID: 0x0B6       DLC: 8  Data: 0x00 0x00 0x00 0x00 0x00 0x00 0x00 0xD0
20:13:08.718 -> 1Standard ID: 0x161       DLC: 7  Data: 0x00 0x00 0x41 0x00 0x00 0x00 0x64
20:13:08.718 -> 1Standard ID: 0x167       DLC: 8  Data: 0x00 0x06 0xFF 0xFF 0x7F 0xFF 0x00 0x00
20:13:08.718 -> 1Standard ID: 0x1A1       DLC: 8  Data: 0x7F 0xFF 0x00 0xFF 0xFF 0xFF 0xFF 0xFF
20:13:08.751 -> 1Standard ID: 0x0B6       DLC: 8  Data: 0x00 0x00 0x00 0x00 0x00 0x00 0x00 0xD0
20:13:08.751 -> 1Standard ID: 0x128       DLC: 8  Data: 0x01 0x00 0x00 0x00 0x00 0x80 0xB0 0x01
20:13:08.751 -> 1Standard ID: 0x14C       DLC: 5  Data: 0x00 0x00 0x00 0x00 0x80
20:13:08.751 -> 1Standard ID: 0x3A7       DLC: 8  Data: 0x10 0x00 0x00 0x03 0x66 0x00 0x36 0x05
20:13:08.784 -> 1Standard ID: 0x018       DLC: 5  Data: 0x80 0x00 0x00 0x00 0x00
20:13:08.784 -> 1Standard ID: 0x1A8       DLC: 8  Data: 0x00 0x00 0x00 0x00 0x00 0x10 0x01 0x29
20:13:08.784 -> 1Standard ID: 0x036       DLC: 8  Data: 0x00 0x00 0x00 0x0F 0x01 0x00 0x00 0xA0
20:13:08.784 -> 1Standard ID: 0x217       DLC: 8  Data: 0xF2 0x80 0x00 0x00 0x80 0xFF 0xFF 0xFF
20:13:08.784 -> 1Standard ID: 0x21F       DLC: 3  Data: 0x00 0x00 0x00
20:13:08.817 -> 1Standard ID: 0x0B6       DLC: 8  Data: 0x00 0x00 0x00 0x00 0x00 0x00 0x00 0xD0
20:13:08.817 -> 1Standard ID: 0x220       DLC: 2  Data: 0x00 0x00
20:13:08.817 -> 1Standard ID: 0x167       DLC: 8  Data: 0x00 0x06 0xFF 0xFF 0x7F 0xFF 0x00 0x00
20:13:08.851 -> 1Standard ID: 0x0DF       DLC: 3  Data: 0x04 0x00 0x40
20:13:08.851 -> 1Standard ID: 0x525       DLC: 8  Data: 0x05 0x00 0x00 0x00 0x01 0x80 0x00 0x00
20:13:08.851 -> 1Standard ID: 0x512       DLC: 8  Data: 0x01 0x00 0x00 0x00 0x00 0x80 0x00 0x00
20:13:08.851 -> 1Standard ID: 0x14C       DLC: 5  Data: 0x00 0x00 0x00 0x00 0x80
20:13:08.884 -> 1Standard ID: 0x0B6       DLC: 8  Data: 0x00 0x00 0x00 0x00 0x00 0x00 0x00 0xD0
20:13:08.884 -> 1Standard ID: 0x168       DLC: 8  Data: 0x00 0x00 0x00 0x00 0x00 0x00 0x00 0x00
20:13:08.884 -> 1Standard ID: 0x036       DLC: 8  Data: 0x00 0x00 0x00 0x0F 0x01 0x00 0x00 0xA0
20:13:08.884 -> 1Standard ID: 0x217       DLC: 8  Data: 0xF2 0x80 0x00 0x00 0x80 0xFF 0xFF 0xFF
20:13:08.884 -> 1Standard ID: 0x21F       DLC: 3  Data: 0x00 0x00 0x00
20:13:08.917 -> 1Standard ID: 0x0B6       DLC: 8  Data: 0x00 0x00 0x00 0x00 0x00 0x00 0x00 0xD0
20:13:08.917 -> 1Standard ID: 0x261       DLC: 7  Data: 0x22 0x27 0x0F 0x00 0x50 0x44 0x97
20:13:08.917 -> 1Standard ID: 0x361       DLC: 6  Data: 0x01 0x00 0x00 0x60 0x10 0x08
20:13:08.917 -> 1Standard ID: 0x167       DLC: 8  Data: 0x00 0x06 0xFF 0xFF 0x7F 0xFF 0x00 0x00
20:13:08.917 -> 1Standard ID: 0x1A1       DLC: 8  Data: 0x7F 0xFF 0x00 0xFF 0xFF 0xFF 0xFF 0xFF
20:13:08.950 -> 1Standard ID: 0x3F6       DLC: 7  Data: 0x05 0x41 0x40 0xCE 0x00 0x84 0x01
20:13:08.950 -> 1Standard ID: 0x0F6       DLC: 8  Data: 0x80 0x5E 0x10 0xF2 0xCA 0x6C 0x6C 0x10
20:13:08.950 -> 1Standard ID: 0x0B6       DLC: 8  Data: 0x00 0x00 0x00 0x00 0x00 0x00 0x00 0xD0
20:13:08.950 -> 1Standard ID: 0x128       DLC: 8  Data: 0x01 0x00 0x00 0x00 0x00 0x80 0xB0 0x01
20:13:08.950 -> 1Standard ID: 0x14C       DLC: 5  Data: 0x00 0x00 0x00 0x00 0x80
20:13:08.983 -> 1Standard ID: 0x2A0       DLC: 1  Data: 0x00
20:13:08.983 -> 1Standard ID: 0x018       DLC: 5  Data: 0x80 0x00 0x00 0x00 0x00
20:13:08.983 -> 1Standard ID: 0x1A8       DLC: 8  Data: 0x00 0x00 0x00 0x00 0x00 0x10 0x01 0x29
20:13:08.983 -> 1Standard ID: 0x036       DLC: 8  Data: 0x00 0x00 0x00 0x0F 0x01 0x00 0x00 0xA0
20:13:08.983 -> 1Standard ID: 0x217       DLC: 8  Data: 0xF2 0x80 0x00 0x00 0x80 0xFF 0xFF 0xFF
20:13:08.983 -> 1Standard ID: 0x3B6       DLC: 6  Data: 0x57 0x43 0x4B 0x46 0x56 0x43
20:13:09.017 -> 1Standard ID: 0x0B6       DLC: 8  Data: 0x00 0x00 0x00 0x00 0x00 0x00 0x00 0xD0
20:13:09.017 -> 1Standard ID: 0x260       DLC: 8  Data: 0x01 0x03 0x92 0x40 0x00 0xC0 0x00 0x10
20:13:09.017 -> 1Standard ID: 0x317       DLC: 8  Data: 0xF3 0x9D 0x92 0xCC 0xD8 0x00 0x86 0x02
20:13:09.017 -> 1Standard ID: 0x51F       DLC: 8  Data: 0x01 0x00 0x00 0x00 0x00 0x00 0x00 0x00
20:13:09.050 -> 1Standard ID: 0x167       DLC: 8  Data: 0x00 0x06 0xFF 0xFF 0x7F 0xFF 0x00 0x00
20:13:09.050 -> 1Standard ID: 0x21F       DLC: 3  Data: 0x00 0x00 0x00
20:13:09.050 -> 1Standard ID: 0x15B       DLC: 8  Data: 0x01 0x03 0x92 0x40 0x00 0xC0 0x00 0xF0
20:13:09.050 -> 1Standard ID: 0x0B6       DLC: 8  Data: 0x00 0x00 0x00 0x00 0x00 0x00 0x00 0xD0
20:13:09.050 -> 1Standard ID: 0x14C       DLC: 5  Data: 0x00 0x00 0x00 0x00 0x80
20:13:09.083 -> 1Standard ID: 0x168       DLC: 8  Data: 0x00 0x00 0x00 0x00 0x00 0x00 0x00 0x00
20:13:09.083 -> 1Standard ID: 0x036       DLC: 8  Data: 0x00 0x00 0x00 0x0F 0x01 0x00 0x00 0xA0
20:13:09.083 -> 1Standard ID: 0x217       DLC: 8  Data: 0xF2 0x80 0x00 0x00 0x80 0xFF 0xFF 0xFF
20:13:09.116 -> 1Standard ID: 0x21F       DLC: 3  Data: 0x00 0x00 0x00
20:13:09.116 -> 1Standard ID: 0x0B6       DLC: 8  Data: 0x00 0x00 0x00 0x00 0x00 0x00 0x00 0xD0
20:13:09.116 -> 1Standard ID: 0x221       DLC: 7  Data: 0x00 0xFF 0xFF 0xFF 0xFF 0xFF 0xFF
20:13:09.116 -> 1Standard ID: 0x227       DLC: 4  Data: 0x00 0x00 0x00 0x00
20:13:09.116 -> 1Standard ID: 0x167       DLC: 8  Data: 0x00 0x06 0xFF 0xFF 0x7F 0xFF 0x00 0x00
20:13:09.116 -> 1Standard ID: 0x1A1       DLC: 8  Data: 0x7F 0xFF 0x00 0xFF 0xFF 0xFF 0xFF 0xFF
20:13:09.149 -> 1Standard ID: 0x0B6       DLC: 8  Data: 0x00 0x00 0x00 0x00 0x00 0x00 0x00 0xD0
20:13:09.149 -> 1Standard ID: 0x128       DLC: 8  Data: 0x01 0x00 0x00 0x00 0x00 0x80 0xB0 0x01
20:13:09.149 -> 1Standard ID: 0x14C       DLC: 5  Data: 0x00 0x00 0x00 0x00 0x80
20:13:09.182 -> 1Standard ID: 0x018       DLC: 5  Data: 0x80 0x00 0x00 0x00 0x00
20:13:09.182 -> 1Standard ID: 0x1A8       DLC: 8  Data: 0x00 0x00 0x00 0x00 0x00 0x10 0x01 0x29
20:13:09.182 -> 1Standard ID: 0x036       DLC: 8  Data: 0x00 0x00 0x00 0x0F 0x01 0x00 0x00 0xA0
20:13:09.182 -> 1Standard ID: 0x217       DLC: 8  Data: 0xF2 0x80 0x00 0x00 0x80 0xFF 0xFF 0xFF
20:13:09.182 -> 1Standard ID: 0x21F       DLC: 3  Data: 0x00 0x00 0x00
20:13:09.215 -> 1Standard ID: 0x0B6       DLC: 8  Data: 0x00 0x00 0x00 0x00 0x00 0x00 0x00 0xD0
20:13:09.215 -> 1Standard ID: 0x161       DLC: 7  Data: 0x00 0x00 0x41 0x00 0x00 0x00 0x64
20:13:09.215 -> 1Standard ID: 0x2B6       DLC: 8  Data: 0x33 0x34 0x30 0x32 0x38 0x39 0x33 0x37
20:13:09.215 -> 1Standard ID: 0x167       DLC: 8  Data: 0x00 0x06 0xFF 0xFF 0x7F 0xFF 0x00 0x00
20:13:09.249 -> 1Standard ID: 0x0B6       DLC: 8  Data: 0x00 0x00 0x00 0x00 0x00 0x00 0x00 0xD0
20:13:09.249 -> 1Standard ID: 0x14C       DLC: 5  Data: 0x00 0x00 0x00 0x00 0x80
20:13:09.282 -> 1Standard ID: 0x3A7       DLC: 8  Data: 0x10 0x00 0x00 0x03 0x66 0x00 0x36 0x05
20:13:09.282 -> 1Standard ID: 0x168       DLC: 8  Data: 0x00 0x00 0x00 0x00 0x00 0x00 0x00 0x00
20:13:09.282 -> 1Standard ID: 0x036       DLC: 8  Data: 0x00 0x00 0x00 0x0F 0x01 0x00 0x00 0xA0
20:13:09.282 -> 1Standard ID: 0x217       DLC: 8  Data: 0xF2 0x80 0x00 0x00 0x80 0xFF 0xFF 0xFF
20:13:09.282 -> 1Standard ID: 0x21F       DLC: 3  Data: 0x00 0x00 0x00
20:13:09.315 -> 1Standard ID: 0x0B6       DLC: 8  Data: 0x00 0x00 0x00 0x00 0x00 0x00 0x00 0xD0
20:13:09.315 -> 1Standard ID: 0x220       DLC: 2  Data: 0x00 0x00
20:13:09.315 -> 1Standard ID: 0x167       DLC: 8  Data: 0x00 0x06 0xFF 0xFF 0x7F 0xFF 0x00 0x00
20:13:09.315 -> 1Standard ID: 0x1A1       DLC: 8  Data: 0x7F 0xFF 0x00 0xFF 0xFF 0xFF 0xFF 0xFF
20:13:09.348 -> 1Standard ID: 0x0DF       DLC: 3  Data: 0x04 0x00 0x40
20:13:09.348 -> 1Standard ID: 0x0B6       DLC: 8  Data: 0x00 0x00 0x00 0x00 0x00 0x00 0x00 0xD0
20:13:09.348 -> 1Standard ID: 0x128       DLC: 8  Data: 0x01 0x00 0x00 0x00 0x00 0x80 0xB0 0x01
20:13:09.348 -> 1Standard ID: 0x14C       DLC: 5  Data: 0x00 0x00 0x00 0x00 0x80
20:13:09.381 -> 1Standard ID: 0x018       DLC: 5  Data: 0x80 0x00 0x00 0x00 0x00
20:13:09.381 -> 1Standard ID: 0x1A8       DLC: 8  Data: 0x00 0x00 0x00 0x00 0x00 0x10 0x01 0x29
20:13:09.381 -> 1Standard ID: 0x036       DLC: 8  Data: 0x00 0x00 0x00 0x0F 0x01 0x00 0x00 0xA0
20:13:09.381 -> 1Standard ID: 0x217       DLC: 8  Data: 0xF2 0x80 0x00 0x00 0x80 0xFF 0xFF 0xFF
20:13:09.414 -> 1Standard ID: 0x21F       DLC: 3  Data: 0x00 0x00 0x00
20:13:09.414 -> 1Standard ID: 0x0B6       DLC: 8  Data: 0x00 0x00 0x00 0x00 0x00 0x00 0x00 0xD0
20:13:09.414 -> 1Standard ID: 0x361       DLC: 6  Data: 0x01 0x00 0x00 0x60 0x10 0x08
20:13:09.414 -> 1Standard ID: 0x167       DLC: 8  Data: 0x00 0x06 0xFF 0xFF 0x7F 0xFF 0x00 0x00
20:13:09.448 -> 1Standard ID: 0x0F6       DLC: 8  Data: 0x80 0x5E 0x10 0xF2 0xCA 0x6C 0x6C 0x10
20:13:09.448 -> 1Standard ID: 0x0B6       DLC: 8  Data: 0x00 0x00 0x00 0x00 0x00 0x00 0x00 0xD0
20:13:09.448 -> 1Standard ID: 0x14C       DLC: 5  Data: 0x00 0x00 0x00 0x00 0x80
20:13:09.481 -> 1Standard ID: 0x2A0       DLC: 1  Data: 0x00
20:13:09.481 -> 1Standard ID: 0x168       DLC: 8  Data: 0x00 0x00 0x00 0x00 0x00 0x00 0x00 0x00
20:13:09.481 -> 1Standard ID: 0x036       DLC: 8  Data: 0x00 0x00 0x00 0x0F 0x01 0x00 0x00 0xA0
20:13:09.481 -> 1Standard ID: 0x217       DLC: 8  Data: 0xF2 0x80 0x00 0x00 0x80 0xFF 0xFF 0xFF
20:13:09.481 -> 1Standard ID: 0x21F       DLC: 3  Data: 0x00 0x00 0x00
20:13:09.514 -> 1Standard ID: 0x0B6       DLC: 8  Data: 0x00 0x00 0x00 0x00 0x00 0x00 0x00 0xD0
20:13:09.514 -> 1Standard ID: 0x260       DLC: 8  Data: 0x02 0x03 0x92 0x40 0x00 0xD0 0x00 0x10
20:13:09.514 -> 1Standard ID: 0x336       DLC: 3  Data: 0x56 0x46 0x33
20:13:09.514 -> 1Standard ID: 0x167       DLC: 8  Data: 0x00 0x06 0xFF 0xFF 0x7F 0xFF 0x00 0x00
20:13:09.514 -> 1Standard ID: 0x1A1       DLC: 8  Data: 0x7F 0xFF 0x00 0xFF 0xFF 0xFF 0xFF 0xFF
20:13:09.547 -> 1Standard ID: 0x15B       DLC: 8  Data: 0x01 0x03 0x92 0x40 0x00 0xC0 0x00 0xF0
20:13:09.547 -> 1Standard ID: 0x0B6       DLC: 8  Data: 0x00 0x00 0x00 0x00 0x00 0x00 0x00 0xD0
20:13:09.547 -> 1Standard ID: 0x128       DLC: 8  Data: 0x01 0x00 0x00 0x00 0x00 0x80 0xB0 0x01
20:13:09.547 -> 1Standard ID: 0x14C       DLC: 5  Data: 0x00 0x00 0x00 0x00 0x80
20:13:09.580 -> 1Standard ID: 0x018       DLC: 5  Data: 0x80 0x00 0x00 0x00 0x00
20:13:09.580 -> 1Standard ID: 0x1A8       DLC: 8  Data: 0x00 0x00 0x00 0x00 0x00 0x10 0x01 0x29
20:13:09.580 -> 1Standard ID: 0x036       DLC: 8  Data: 0x00 0x00 0x00 0x0F 0x01 0x00 0x00 0xA0
20:13:09.580 -> 1Standard ID: 0x217       DLC: 8  Data: 0xF2 0x80 0x00 0x00 0x80 0xFF 0xFF 0xFF
20:13:09.614 -> 1Standard ID: 0x21F       DLC: 3  Data: 0x00 0x00 0x00
20:13:09.614 -> 1Standard ID: 0x0B6       DLC: 8  Data: 0x00 0x00 0x00 0x00 0x00 0x00 0x00 0xD0
20:13:09.614 -> 1Standard ID: 0x2A1       DLC: 7  Data: 0x12 0x04 0x43 0x00 0x63 0x0D 0xDA
20:13:09.614 -> 1Standard ID: 0x227       DLC: 4  Data: 0x00 0x00 0x00 0x00
20:13:09.614 -> 1Standard ID: 0x167       DLC: 8  Data: 0x00 0x06 0xFF 0xFF 0x7F 0xFF 0x00 0x00
20:13:09.647 -> 1Standard ID: 0x0B6       DLC: 8  Data: 0x00 0x00 0x00 0x00 0x00 0x00 0x00 0xD0
20:13:09.647 -> 1Standard ID: 0x14C       DLC: 5  Data: 0x00 0x00 0x00 0x00 0x80
20:13:09.680 -> 1Standard ID: 0x168       DLC: 8  Data: 0x00 0x00 0x00 0x00 0x00 0x00 0x00 0x00
20:13:09.680 -> 1Standard ID: 0x036       DLC: 8  Data: 0x00 0x00 0x00 0x0F 0x01 0x00 0x00 0xA0
20:13:09.680 -> 1Standard ID: 0x217       DLC: 8  Data: 0xF2 0x80 0x00 0x00 0x80 0xFF 0xFF 0xFF
20:13:09.713 -> 1Standard ID: 0x21F       DLC: 3  Data: 0x00 0x00 0x00
20:13:09.713 -> 1Standard ID: 0x0B6       DLC: 8  Data: 0x00 0x00 0x00 0x00 0x00 0x00 0x00 0xD0
20:13:09.713 -> 1Standard ID: 0x161       DLC: 7  Data: 0x00 0x00 0x41 0x00 0x00 0x00 0x64
20:13:09.713 -> 1Standard ID: 0x167       DLC: 8  Data: 0x00 0x06 0xFF 0xFF 0x7F 0xFF 0x00 0x00
20:13:09.713 -> 1Standard ID: 0x1A1       DLC: 8  Data: 0x7F 0xFF 0x00 0xFF 0xFF 0xFF 0xFF 0xFF
20:13:09.746 -> 1Standard ID: 0x0B6       DLC: 8  Data: 0x00 0x00 0x00 0x00 0x00 0x00 0x00 0xD0
20:13:09.746 -> 1Standard ID: 0x128       DLC: 8  Data: 0x01 0x00 0x00 0x00 0x00 0x80 0xB0 0x01
20:13:09.746 -> 1Standard ID: 0x14C       DLC: 5  Data: 0x00 0x00 0x00 0x00 0x80
20:13:09.780 -> 1Standard ID: 0x3A7       DLC: 8  Data: 0x10 0x00 0x00 0x03 0x66 0x00 0x36 0x05
20:13:09.780 -> 1Standard ID: 0x018       DLC: 5  Data: 0x80 0x00 0x00 0x00 0x00
20:13:09.780 -> 1Standard ID: 0x1A8       DLC: 8  Data: 0x00 0x00 0x00 0x00 0x00 0x10 0x01 0x29
20:13:09.780 -> 1Standard ID: 0x036       DLC: 8  Data: 0x00 0x00 0x00 0x0F 0x01 0x00 0x00 0xA0
20:13:09.780 -> 1Standard ID: 0x217       DLC: 8  Data: 0xF2 0x80 0x00 0x00 0x80 0xFF 0xFF 0xFF
20:13:09.813 -> 1Standard ID: 0x21F       DLC: 3  Data: 0x00 0x00 0x00
20:13:09.813 -> 1Standard ID: 0x0B6       DLC: 8  Data: 0x00 0x00 0x00 0x00 0x00 0x00 0x00 0xD0
20:13:09.813 -> 1Standard ID: 0x220       DLC: 2  Data: 0x00 0x00
20:13:09.813 -> 1Standard ID: 0x167       DLC: 8  Data: 0x00 0x06 0xFF 0xFF 0x7F 0xFF 0x00 0x00
20:13:09.846 -> 1Standard ID: 0x0DF       DLC: 3  Data: 0x04 0x00 0x40
20:13:09.846 -> 1Standard ID: 0x525       DLC: 8  Data: 0x05 0x00 0x00 0x00 0x01 0x80 0x00 0x00
20:13:09.846 -> 1Standard ID: 0x512       DLC: 8  Data: 0x01 0x00 0x00 0x00 0x00 0x80 0x00 0x00
20:13:09.879 -> 1Standard ID: 0x14C       DLC: 5  Data: 0x00 0x00 0x00 0x00 0x80
20:13:09.879 -> 1Standard ID: 0x0B6       DLC: 8  Data: 0x00 0x00 0x00 0x00 0x00 0x00 0x00 0xD0
20:13:09.879 -> 1Standard ID: 0x168       DLC: 8  Data: 0x00 0x00 0x00 0x00 0x00 0x00 0x00 0x00
20:13:09.879 -> 1Standard ID: 0x036       DLC: 8  Data: 0x00 0x00 0x00 0x0F 0x01 0x00 0x00 0xA0
20:13:09.879 -> 1Standard ID: 0x217       DLC: 8  Data: 0xF2 0x80 0x00 0x00 0x80 0xFF 0xFF 0xFF
20:13:09.912 -> 1Standard ID: 0x21F       DLC: 3  Data: 0x00 0x00 0x00
20:13:09.912 -> 1Standard ID: 0x0B6       DLC: 8  Data: 0x00 0x00 0x00 0x00 0x00 0x00 0x00 0xD0
20:13:09.912 -> 1Standard ID: 0x261       DLC: 7  Data: 0x22 0x27 0x0F 0x00 0x50 0x44 0x97
20:13:09.912 -> 1Standard ID: 0x361       DLC: 6  Data: 0x01 0x00 0x00 0x60 0x10 0x08
20:13:09.912 -> 1Standard ID: 0x167       DLC: 8  Data: 0x00 0x06 0xFF 0xFF 0x7F 0xFF 0x00 0x00
20:13:09.912 -> 1Standard ID: 0x1A1       DLC: 8  Data: 0x7F 0xFF 0x00 0xFF 0xFF 0xFF 0xFF 0xFF
20:13:09.945 -> 1Standard ID: 0x3F6       DLC: 7  Data: 0x05 0x41 0x50 0xCE 0x00 0x84 0x01
20:13:09.945 -> 1Standard ID: 0x0F6       DLC: 8  Data: 0x80 0x5E 0x10 0xF2 0xCA 0x6C 0x6C 0x10
20:13:09.945 -> 1Standard ID: 0x0B6       DLC: 8  Data: 0x00 0x00 0x00 0x00 0x00 0x00 0x00 0xD0
20:13:09.945 -> 1Standard ID: 0x128       DLC: 8  Data: 0x01 0x00 0x00 0x00 0x00 0x80 0xB0 0x01
20:13:09.979 -> 1Standard ID: 0x14C       DLC: 5  Data: 0x00 0x00 0x00 0x00 0x80
20:13:09.979 -> 1Standard ID: 0x2A0       DLC: 1  Data: 0x00
20:13:09.979 -> 1Standard ID: 0x018       DLC: 5  Data: 0x80 0x00 0x00 0x00 0x00
20:13:09.979 -> 1Standard ID: 0x1A8       DLC: 8  Data: 0x00 0x00 0x00 0x00 0x00 0x10 0x01 0x29
20:13:09.979 -> 1Standard ID: 0x036       DLC: 8  Data: 0x00 0x00 0x00 0x0F 0x01 0x00 0x00 0xA0
20:13:09.979 -> 1Standard ID: 0x217       DLC: 8  Data: 0xF2 0x80 0x00 0x00 0x80 0xFF 0xFF 0xFF
20:13:10.012 -> 1Standard ID: 0x21F       DLC: 3  Data: 0x00 0x00 0x00
20:13:10.012 -> 1Standard ID: 0x0B6       DLC: 8  Data: 0x00 0x00 0x00 0x00 0x00 0x00 0x00 0xD0
20:13:10.012 -> 1Standard ID: 0x260       DLC: 8  Data: 0x03 0x03 0x92 0x40 0x00 0xD0 0x00 0x10
20:13:10.012 -> 1Standard ID: 0x317       DLC: 8  Data: 0xF3 0x9D 0x92 0xCC 0xD8 0x00 0x86 0x02
20:13:10.012 -> 1Standard ID: 0x51F       DLC: 8  Data: 0x01 0x00 0x00 0x00 0x00 0x00 0x00 0x00
20:13:10.045 -> 1Standard ID: 0x167       DLC: 8  Data: 0x00 0x06 0xFF 0xFF 0x7F 0xFF 0x00 0x00
20:13:10.045 -> 1Standard ID: 0x3B6       DLC: 6  Data: 0x57 0x43 0x4B 0x46 0x56 0x43
20:13:10.045 -> 1Standard ID: 0x15B       DLC: 8  Data: 0x01 0x03 0x92 0x40 0x00 0xC0 0x00 0xF0
20:13:10.045 -> 1Standard ID: 0x0B6       DLC: 8  Data: 0x00 0x00 0x00 0x00 0x00 0x00 0x00 0xD0
20:13:10.045 -> 1Standard ID: 0x14C       DLC: 5  Data: 0x00 0x00 0x00 0x00 0x80
20:13:10.078 -> 1Standard ID: 0x168       DLC: 8  Data: 0x00 0x00 0x00 0x00 0x00 0x00 0x00 0x00
20:13:10.078 -> 1Standard ID: 0x036       DLC: 8  Data: 0x00 0x00 0x00 0x0F 0x01 0x00 0x00 0xA0
20:13:10.078 -> 1Standard ID: 0x217       DLC: 8  Data: 0xF2 0x80 0x00 0x00 0x80 0xFF 0xFF 0xFF
20:13:10.112 -> 1Standard ID: 0x21F       DLC: 3  Data: 0x00 0x00 0x00
20:13:10.112 -> 1Standard ID: 0x0B6       DLC: 8  Data: 0x00 0x00 0x00 0x00 0x00 0x00 0x00 0xD0
20:13:10.112 -> 1Standard ID: 0x221       DLC: 7  Data: 0x00 0xFF 0xFF 0xFF 0xFF 0xFF 0xFF
20:13:10.112 -> 1Standard ID: 0x227       DLC: 4  Data: 0x00 0x00 0x00 0x00
20:13:10.112 -> 1Standard ID: 0x167       DLC: 8  Data: 0x00 0x06 0xFF 0xFF 0x7F 0xFF 0x00 0x00
20:13:10.112 -> 1Standard ID: 0x1A1       DLC: 8  Data: 0x7F 0xFF 0x00 0xFF 0xFF 0xFF 0xFF 0xFF
20:13:10.145 -> 1Standard ID: 0x0B6       DLC: 8  Data: 0x00 0x00 0x00 0x00 0x00 0x00 0x00 0xD0
20:13:10.145 -> 1Standard ID: 0x128       DLC: 8  Data: 0x01 0x00 0x00 0x00 0x00 0x80 0xB0 0x01
20:13:10.145 -> 1Standard ID: 0x14C       DLC: 5  Data: 0x00 0x00 0x00 0x00 0x80
20:13:10.178 -> 1Standard ID: 0x018       DLC: 5  Data: 0x80 0x00 0x00 0x00 0x00
20:13:10.178 -> 1Standard ID: 0x1A8       DLC: 8  Data: 0x00 0x00 0x00 0x00 0x00 0x10 0x01 0x29
20:13:10.178 -> 1Standard ID: 0x036       DLC: 8  Data: 0x00 0x00 0x00 0x0F 0x01 0x00 0x00 0xA0
20:13:10.178 -> 1Standard ID: 0x217       DLC: 8  Data: 0xF2 0x80 0x00 0x00 0x80 0xFF 0xFF 0xFF
20:13:10.211 -> 1Standard ID: 0x21F       DLC: 3  Data: 0x00 0x00 0x00
20:13:10.211 -> 1Standard ID: 0x0B6       DLC: 8  Data: 0x00 0x00 0x00 0x00 0x00 0x00 0x00 0xD0
20:13:10.211 -> 1Standard ID: 0x161       DLC: 7  Data: 0x00 0x00 0x41 0x00 0x00 0x00 0x64
20:13:10.211 -> 1Standard ID: 0x2B6       DLC: 8  Data: 0x33 0x34 0x30 0x32 0x38 0x39 0x33 0x37
20:13:10.211 -> 1Standard ID: 0x167       DLC: 8  Data: 0x00 0x06 0xFF 0xFF 0x7F 0xFF 0x00 0x00
20:13:10.244 -> 1Standard ID: 0x0B6       DLC: 8  Data: 0x00 0x00 0x00 0x00 0x00 0x00 0x00 0xD0
20:13:10.244 -> 1Standard ID: 0x14C       DLC: 5  Data: 0x00 0x00 0x00 0x00 0x80
20:13:10.277 -> 1Standard ID: 0x3A7       DLC: 8  Data: 0x10 0x00 0x00 0x03 0x66 0x00 0x36 0x05
20:13:10.277 -> 1Standard ID: 0x168       DLC: 8  Data: 0x00 0x00 0x00 0x00 0x00 0x00 0x00 0x00
20:13:10.277 -> 1Standard ID: 0x217       DLC: 8  Data: 0xF2 0x80 0x00 0x00 0x80 0xFF 0xFF 0xFF
20:13:10.277 -> 1Standard ID: 0x036       DLC: 8  Data: 0x00 0x00 0x00 0x0F 0x01 0x00 0x00 0xA0
20:13:10.311 -> 1Standard ID: 0x21F       DLC: 3  Data: 0x00 0x00 0x00
20:13:10.311 -> 1Standard ID: 0x0B6       DLC: 8  Data: 0x00 0x00 0x00 0x00 0x00 0x00 0x00 0xD0
20:13:10.311 -> 1Standard ID: 0x220       DLC: 2  Data: 0x00 0x00
20:13:10.311 -> 1Standard ID: 0x167       DLC: 8  Data: 0x00 0x06 0xFF 0xFF 0x7F 0xFF 0x00 0x00
20:13:10.311 -> 1Standard ID: 0x1A1       DLC: 8  Data: 0x7F 0xFF 0x00 0xFF 0xFF 0xFF 0xFF 0xFF
20:13:10.344 -> 1Standard ID: 0x0DF       DLC: 3  Data: 0x04 0x00 0x40
20:13:10.344 -> 1Standard ID: 0x0B6       DLC: 8  Data: 0x00 0x00 0x00 0x00 0x00 0x00 0x00 0xD0
20:13:10.344 -> 1Standard ID: 0x128       DLC: 8  Data: 0x01 0x00 0x00 0x00 0x00 0x80 0xB0 0x01
20:13:10.377 -> 1Standard ID: 0x14C       DLC: 5  Data: 0x00 0x00 0x00 0x00 0x80
20:13:10.377 -> 1Standard ID: 0x018       DLC: 5  Data: 0x80 0x00 0x00 0x00 0x00
20:13:10.377 -> 1Standard ID: 0x1A8       DLC: 8  Data: 0x00 0x00 0x00 0x00 0x00 0x10 0x01 0x29
20:13:10.377 -> 1Standard ID: 0x217       DLC: 8  Data: 0xF2 0x80 0x00 0x00 0x80 0xFF 0xFF 0xFF
20:13:10.377 -> 1Standard ID: 0x036       DLC: 8  Data: 0x00 0x00 0x00 0x0F 0x01 0x00 0x00 0xA0
20:13:10.410 -> 1Standard ID: 0x21F       DLC: 3  Data: 0x00 0x00 0x00
20:13:10.410 -> 1Standard ID: 0x0B6       DLC: 8  Data: 0x00 0x00 0x00 0x00 0x00 0x00 0x00 0xD0
20:13:10.410 -> 1Standard ID: 0x361       DLC: 6  Data: 0x01 0x00 0x00 0x60 0x10 0x08
20:13:10.410 -> 1Standard ID: 0x167       DLC: 8  Data: 0x00 0x06 0xFF 0xFF 0x7F 0xFF 0x00 0x00
20:13:10.444 -> 1Standard ID: 0x0F6       DLC: 8  Data: 0x80 0x5D 0x10 0xF2 0xCA 0x6C 0x6C 0x10
20:13:10.444 -> 1Standard ID: 0x0B6       DLC: 8  Data: 0x00 0x00 0x00 0x00 0x00 0x00 0x00 0xD0
20:13:10.444 -> 1Standard ID: 0x14C       DLC: 5  Data: 0x00 0x00 0x00 0x00 0x80
20:13:10.477 -> 1Standard ID: 0x2A0       DLC: 1  Data: 0x00
20:13:10.477 -> 1Standard ID: 0x168       DLC: 8  Data: 0x00 0x00 0x00 0x00 0x00 0x00 0x00 0x00
20:13:10.477 -> 1Standard ID: 0x217       DLC: 8  Data: 0xF2 0x80 0x00 0x00 0x80 0xFF 0xFF 0xFF
20:13:10.477 -> 1Standard ID: 0x036       DLC: 8  Data: 0x00 0x00 0x00 0x0F 0x01 0x00 0x00 0xA0
20:13:10.510 -> 1Standard ID: 0x21F       DLC: 3  Data: 0x00 0x00 0x00
20:13:10.510 -> 1Standard ID: 0x0B6       DLC: 8  Data: 0x00 0x00 0x00 0x00 0x00 0x00 0x00 0xD0
20:13:10.510 -> 1Standard ID: 0x260       DLC: 8  Data: 0x01 0x03 0x92 0x40 0x00 0xC0 0x00 0x10
20:13:10.510 -> 1Standard ID: 0x336       DLC: 3  Data: 0x56 0x46 0x33
20:13:10.510 -> 1Standard ID: 0x167       DLC: 8  Data: 0x00 0x06 0xFF 0xFF 0x7F 0xFF 0x00 0x00
20:13:10.543 -> 1Standard ID: 0x1A1       DLC: 8  Data: 0x7F 0xFF 0x00 0xFF 0xFF 0xFF 0xFF 0xFF
20:13:10.543 -> 1Standard ID: 0x15B       DLC: 8  Data: 0x01 0x03 0x92 0x40 0x00 0xC0 0x00 0xF0
20:13:10.543 -> 1Standard ID: 0x0B6       DLC: 8  Data: 0x00 0x00 0x00 0x00 0x00 0x00 0x00 0xD0
20:13:10.543 -> 1Standard ID: 0x128       DLC: 8  Data: 0x01 0x00 0x00 0x00 0x00 0x80 0xB0 0x01
20:13:10.576 -> 1Standard ID: 0x14C       DLC: 5  Data: 0x00 0x00 0x00 0x00 0x80
20:13:10.576 -> 1Standard ID: 0x018       DLC: 5  Data: 0x80 0x00 0x00 0x00 0x00
20:13:10.576 -> 1Standard ID: 0x1A8       DLC: 8  Data: 0x00 0x00 0x00 0x00 0x00 0x10 0x01 0x29
20:13:10.576 -> 1Standard ID: 0x217       DLC: 8  Data: 0xF2 0x80 0x00 0x00 0x80 0xFF 0xFF 0xFF
20:13:10.576 -> 1Standard ID: 0x036       DLC: 8  Data: 0x00 0x00 0x00 0x0F 0x01 0x00 0x00 0xA0
20:13:10.609 -> 1Standard ID: 0x21F       DLC: 3  Data: 0x00 0x00 0x00
20:13:10.609 -> 1Standard ID: 0x0B6       DLC: 8  Data: 0x00 0x00 0x00 0x00 0x00 0x00 0x00 0xD0
20:13:10.609 -> 1Standard ID: 0x2A1       DLC: 7  Data: 0x12 0x04 0x43 0x00 0x63 0x0D 0xDA
20:13:10.609 -> 1Standard ID: 0x227       DLC: 4  Data: 0x00 0x00 0x00 0x00
20:13:10.609 -> 1Standard ID: 0x167       DLC: 8  Data: 0x00 0x06 0xFF 0xFF 0x7F 0xFF 0x00 0x00
20:13:10.643 -> 1Standard ID: 0x0B6       DLC: 8  Data: 0x00 0x00 0x00 0x00 0x00 0x00 0x00 0xD0
20:13:10.643 -> 1Standard ID: 0x14C       DLC: 5  Data: 0x00 0x00 0x00 0x00 0x80
20:13:10.676 -> 1Standard ID: 0x168       DLC: 8  Data: 0x00 0x00 0x00 0x00 0x00 0x00 0x00 0x00
20:13:10.676 -> 1Standard ID: 0x217       DLC: 8  Data: 0xF2 0x80 0x00 0x00 0x80 0xFF 0xFF 0xFF
20:13:10.709 -> 1Standard ID: 0x036       DLC: 8  Data: 0x00 0x00 0x00 0x0F 0x01 0x00 0x00 0xA0
20:13:10.709 -> 1Standard ID: 0x21F       DLC: 3  Data: 0x00 0x00 0x00
20:13:10.709 -> 1Standard ID: 0x0B6       DLC: 8  Data: 0x00 0x00 0x00 0x00 0x00 0x00 0x00 0xD0
20:13:10.709 -> 1Standard ID: 0x161       DLC: 7  Data: 0x00 0x00 0x41 0x00 0x00 0x00 0x64
20:13:10.709 -> 1Standard ID: 0x167       DLC: 8  Data: 0x00 0x06 0xFF 0xFF 0x7F 0xFF 0x00 0x00
20:13:10.709 -> 1Standard ID: 0x1A1       DLC: 8  Data: 0x7F 0xFF 0x00 0xFF 0xFF 0xFF 0xFF 0xFF
20:13:10.742 -> 1Standard ID: 0x0B6       DLC: 8  Data: 0x00 0x00 0x00 0x00 0x00 0x00 0x00 0xD0
20:13:10.742 -> 1Standard ID: 0x128       DLC: 8  Data: 0x01 0x00 0x00 0x00 0x00 0x80 0xB0 0x01
20:13:10.775 -> 1Standard ID: 0x14C       DLC: 5  Data: 0x00 0x00 0x00 0x00 0x80
20:13:10.775 -> 1Standard ID: 0x018       DLC: 5  Data: 0x80 0x00 0x00 0x00 0x00
20:13:10.775 -> 1Standard ID: 0x3A7       DLC: 8  Data: 0x10 0x00 0x00 0x03 0x66 0x00 0x36 0x05
20:13:10.775 -> 1Standard ID: 0x1A8       DLC: 8  Data: 0x00 0x00 0x00 0x00 0x00 0x10 0x01 0x29
20:13:10.775 -> 1Standard ID: 0x217       DLC: 8  Data: 0xF2 0x80 0x00 0x00 0x80 0xFF 0xFF 0xFF
20:13:10.775 -> 1Standard ID: 0x036       DLC: 8  Data: 0x00 0x00 0x00 0x0F 0x01 0x00 0x00 0xA0
20:13:10.809 -> 1Standard ID: 0x21F       DLC: 3  Data: 0x00 0x00 0x00
20:13:10.809 -> 1Standard ID: 0x0B6       DLC: 8  Data: 0x00 0x00 0x00 0x00 0x00 0x00 0x00 0xD0
20:13:10.809 -> 1Standard ID: 0x220       DLC: 2  Data: 0x00 0x00
20:13:10.809 -> 1Standard ID: 0x167       DLC: 8  Data: 0x00 0x06 0xFF 0xFF 0x7F 0xFF 0x00 0x00
20:13:10.842 -> 1Standard ID: 0x0DF       DLC: 3  Data: 0x04 0x00 0x40
20:13:10.842 -> 1Standard ID: 0x525       DLC: 8  Data: 0x05 0x00 0x00 0x00 0x01 0x80 0x00 0x00
20:13:10.842 -> 1Standard ID: 0x512       DLC: 8  Data: 0x01 0x00 0x00 0x00 0x00 0x80 0x00 0x00
20:13:10.875 -> 1Standard ID: 0x14C       DLC: 5  Data: 0x00 0x00 0x00 0x00 0x80
20:13:10.875 -> 1Standard ID: 0x0B6       DLC: 8  Data: 0x00 0x00 0x00 0x00 0x00 0x00 0x00 0xD0
20:13:10.875 -> 1Standard ID: 0x168       DLC: 8  Data: 0x00 0x00 0x00 0x00 0x00 0x00 0x00 0x00
20:13:10.875 -> 1Standard ID: 0x217       DLC: 8  Data: 0xF2 0x80 0x00 0x00 0x80 0xFF 0xFF 0xFF
20:13:10.875 -> 1Standard ID: 0x036       DLC: 8  Data: 0x00 0x00 0x00 0x0F 0x01 0x00 0x00 0xA0
20:13:10.908 -> 1Standard ID: 0x261       DLC: 7  Data: 0x22 0x27 0x0F 0x00 0x50 0x44 0x97
20:13:10.908 -> 1Standard ID: 0x21F       DLC: 3  Data: 0x00 0x00 0x00
20:13:10.908 -> 1Standard ID: 0x0B6       DLC: 8  Data: 0x00 0x00 0x00 0x00 0x00 0x00 0x00 0xD0
20:13:10.908 -> 1Standard ID: 0x361       DLC: 6  Data: 0x01 0x00 0x00 0x60 0x10 0x08
20:13:10.908 -> 1Standard ID: 0x167       DLC: 8  Data: 0x00 0x06 0xFF 0xFF 0x7F 0xFF 0x00 0x00
20:13:10.941 -> 1Standard ID: 0x1A1       DLC: 8  Data: 0x7F 0xFF 0x00 0xFF 0xFF 0xFF 0xFF 0xFF
20:13:10.941 -> 1Standard ID: 0x3F6       DLC: 7  Data: 0x05 0x41 0x60 0xCE 0x00 0x84 0x01
20:13:10.941 -> 1Standard ID: 0x0F6       DLC: 8  Data: 0x80 0x5E 0x10 0xF2 0xCA 0x6C 0x6C 0x10
20:13:10.941 -> 1Standard ID: 0x0B6       DLC: 8  Data: 0x00 0x00 0x00 0x00 0x00 0x00 0x00 0xD0
20:13:10.941 -> 1Standard ID: 0x128       DLC: 8  Data: 0x01 0x00 0x00 0x00 0x00 0x80 0xB0 0x01
20:13:10.974 -> 1Standard ID: 0x14C       DLC: 5  Data: 0x00 0x00 0x00 0x00 0x80
20:13:10.974 -> 1Standard ID: 0x018       DLC: 5  Data: 0x80 0x00 0x00 0x00 0x00
20:13:10.974 -> 1Standard ID: 0x2A0       DLC: 1  Data: 0x00
20:13:10.974 -> 1Standard ID: 0x1A8       DLC: 8  Data: 0x00 0x00 0x00 0x00 0x00 0x10 0x01 0x29
20:13:10.974 -> 1Standard ID: 0x217       DLC: 8  Data: 0xF2 0x80 0x00 0x00 0x80 0xFF 0xFF 0xFF
20:13:11.007 -> 1Standard ID: 0x036       DLC: 8  Data: 0x00 0x00 0x00 0x0F 0x01 0x00 0x00 0xA0
20:13:11.007 -> 1Standard ID: 0x3B6       DLC: 6  Data: 0x57 0x43 0x4B 0x46 0x56 0x43
20:13:11.007 -> 1Standard ID: 0x21F       DLC: 3  Data: 0x00 0x00 0x00
20:13:11.007 -> 1Standard ID: 0x260       DLC: 8  Data: 0x02 0x03 0x92 0x40 0x00 0xD0 0x00 0x10
20:13:11.007 -> 1Standard ID: 0x317       DLC: 8  Data: 0xF3 0x9D 0x92 0xCC 0xD8 0x00 0x86 0x02
20:13:11.041 -> 1Standard ID: 0x51F       DLC: 8  Data: 0x01 0x00 0x00 0x00 0x00 0x00 0x00 0x00
20:13:11.041 -> 1Standard ID: 0x167       DLC: 8  Data: 0x00 0x06 0xFF 0xFF 0x7F 0xFF 0x00 0x00
20:13:11.041 -> 1Standard ID: 0x0B6       DLC: 8  Data: 0x00 0x00 0x00 0x00 0x00 0x00 0x00 0xD0
20:13:11.041 -> 1Standard ID: 0x15B       DLC: 8  Data: 0x01 0x03 0x92 0x40 0x00 0xC0 0x00 0xF0
20:13:11.041 -> 1Standard ID: 0x0B6       DLC: 8  Data: 0x00 0x00 0x00 0x00 0x00 0x00 0x00 0xD0
20:13:11.074 -> 1Standard ID: 0x14C       DLC: 5  Data: 0x00 0x00 0x00 0x00 0x80
20:13:11.074 -> 1Standard ID: 0x168       DLC: 8  Data: 0x00 0x00 0x00 0x00 0x00 0x00 0x00 0x00
20:13:11.074 -> 1Standard ID: 0x217       DLC: 8  Data: 0xF2 0x80 0x00 0x00 0x80 0xFF 0xFF 0xFF
20:13:11.074 -> 1Standard ID: 0x036       DLC: 8  Data: 0x00 0x00 0x00 0x0F 0x01 0x00 0x00 0xA0
20:13:11.107 -> 1Standard ID: 0x221       DLC: 7  Data: 0x00 0xFF 0xFF 0xFF 0xFF 0xFF 0xFF
20:13:11.107 -> 1Standard ID: 0x21F       DLC: 3  Data: 0x00 0x00 0x00
20:13:11.107 -> 1Standard ID: 0x0B6       DLC: 8  Data: 0x00 0x00 0x00 0x00 0x00 0x00 0x00 0xD0
20:13:11.107 -> 1Standard ID: 0x227       DLC: 4  Data: 0x00 0x00 0x00 0x00
20:13:11.107 -> 1Standard ID: 0x167       DLC: 8  Data: 0x00 0x06 0xFF 0xFF 0x7F 0xFF 0x00 0x00
20:13:11.140 -> 1Standard ID: 0x1A1       DLC: 8  Data: 0x7F 0xFF 0x00 0xFF 0xFF 0xFF 0xFF 0xFF
20:13:11.140 -> 1Standard ID: 0x0B6       DLC: 8  Data: 0x00 0x00 0x00 0x00 0x00 0x00 0x00 0xD0
20:13:11.140 -> 1Standard ID: 0x128       DLC: 8  Data: 0x01 0x00 0x00 0x00 0x00 0x80 0xB0 0x01
