21:50:51.273 -> Standard ID: 0x167       DLC: 8  Data: 0x00 0x06 0xFF 0xFF 0x7F 0xFF 0x00 0x00
21:50:51.307 -> Standard ID: 0x14C       DLC: 5  Data: 0x00 0x00 0x00 0x00 0x80
21:50:51.307 -> Standard ID: 0x21F       DLC: 3  Data: 0x00 0x00 0x00
21:50:51.307 -> Standard ID: 0x3A7       DLC: 8  Data: 0x10 0x00 0x00 0x03 0x66 0x00 0x36 0x05
21:50:51.307 -> Standard ID: 0x217       DLC: 8  Data: 0xF2 0x80 0x00 0x00 0x80 0xFF 0xFF 0xFF
21:50:51.307 -> Standard ID: 0x168       DLC: 8  Data: 0x00 0x00 0x00 0x00 0x00 0x00 0x00 0x00
21:50:51.340 -> Standard ID: 0x036       DLC: 8  Data: 0x00 0x00 0x00 0x0F 0x01 0x00 0x00 0xA0
21:50:51.340 -> Standard ID: 0x018       DLC: 5  Data: 0x80 0x00 0x00 0x00 0x00
21:50:51.340 -> Standard ID: 0x0B6       DLC: 8  Data: 0x00 0x00 0x00 0x00 0x00 0x00 0x00 0xD0
21:50:51.340 -> Standard ID: 0x220       DLC: 2  Data: 0x00 0x00
21:50:51.340 -> Standard ID: 0x1A1       DLC: 8  Data: 0x7F 0xFF 0x00 0xFF 0xFF 0xFF 0xFF 0xFF
21:50:51.373 -> Standard ID: 0x0DF       DLC: 3  Data: 0x04 0x00 0x40
21:50:51.373 -> Standard ID: 0x0B6       DLC: 8  Data: 0x00 0x00 0x00 0x00 0x00 0x00 0x00 0xD0
21:50:51.406 -> Standard ID: 0x167       DLC: 8  Data: 0x00 0x06 0xFF 0xFF 0x7F 0xFF 0x00 0x00
21:50:51.406 -> Standard ID: 0x128       DLC: 8  Data: 0x00 0x00 0x00 0x00 0x00 0x80 0xB0 0x01
21:50:51.406 -> Standard ID: 0x21F       DLC: 3  Data: 0x00 0x00 0x00
21:50:51.406 -> Standard ID: 0x14C       DLC: 5  Data: 0x00 0x00 0x00 0x00 0x80
21:50:51.406 -> Standard ID: 0x217       DLC: 8  Data: 0xF2 0x80 0x00 0x00 0x80 0xFF 0xFF 0xFF
21:50:51.439 -> Standard ID: 0x1A8       DLC: 8  Data: 0x00 0x00 0x00 0x00 0x00 0x10 0x01 0x29
21:50:51.439 -> Standard ID: 0x036       DLC: 8  Data: 0x00 0x00 0x00 0x0F 0x01 0x00 0x00 0xA0
21:50:51.439 -> Standard ID: 0x0B6       DLC: 8  Data: 0x00 0x00 0x00 0x00 0x00 0x00 0x00 0xD0
21:50:51.439 -> Standard ID: 0x361       DLC: 6  Data: 0x01 0x00 0x00 0x60 0x10 0x08
21:50:51.472 -> Standard ID: 0x0F6       DLC: 8  Data: 0x80 0x3C 0x10 0xF2 0xCA 0x6C 0x6C 0x10
21:50:51.505 -> Standard ID: 0x0B6       DLC: 8  Data: 0x00 0x00 0x00 0x00 0x00 0x00 0x00 0xD0
21:50:51.505 -> Standard ID: 0x167       DLC: 8  Data: 0x00 0x06 0xFF 0xFF 0x7F 0xFF 0x00 0x00
21:50:51.505 -> Standard ID: 0x14C       DLC: 5  Data: 0x00 0x00 0x00 0x00 0x80
21:50:51.505 -> Standard ID: 0x21F       DLC: 3  Data: 0x00 0x00 0x00
21:50:51.505 -> Standard ID: 0x2A0       DLC: 1  Data: 0x00
21:50:51.505 -> Standard ID: 0x217       DLC: 8  Data: 0xF2 0x80 0x00 0x00 0x80 0xFF 0xFF 0xFF
21:50:51.539 -> Standard ID: 0x168       DLC: 8  Data: 0x00 0x00 0x00 0x00 0x00 0x00 0x00 0x00
21:50:51.539 -> Standard ID: 0x036       DLC: 8  Data: 0x00 0x00 0x00 0x0F 0x01 0x00 0x00 0xA0
21:50:51.539 -> Standard ID: 0x018       DLC: 5  Data: 0x80 0x00 0x00 0x00 0x00
21:50:51.539 -> Standard ID: 0x0B6       DLC: 8  Data: 0x00 0x00 0x00 0x00 0x00 0x00 0x00 0xD0
21:50:51.539 -> Standard ID: 0x260       DLC: 8  Data: 0x02 0x03 0x92 0x40 0x00 0xD0 0x00 0x10
21:50:51.539 -> Standard ID: 0x336       DLC: 3  Data: 0x56 0x46 0x33
21:50:51.572 -> Standard ID: 0x1A1       DLC: 8  Data: 0x7F 0xFF 0x00 0xFF 0xFF 0xFF 0xFF 0xFF
21:50:51.572 -> Standard ID: 0x15B       DLC: 8  Data: 0x01 0x03 0x92 0x40 0x00 0xC0 0x00 0xF0
21:50:51.572 -> Standard ID: 0x0B6       DLC: 8  Data: 0x00 0x00 0x00 0x00 0x00 0x00 0x00 0xD0
21:50:51.605 -> Standard ID: 0x167       DLC: 8  Data: 0x00 0x06 0xFF 0xFF 0x7F 0xFF 0x00 0x00
21:50:51.605 -> Standard ID: 0x128       DLC: 8  Data: 0x00 0x00 0x00 0x00 0x00 0x80 0xB0 0x01
21:50:51.605 -> Standard ID: 0x14C       DLC: 5  Data: 0x00 0x00 0x00 0x00 0x80
21:50:51.605 -> Standard ID: 0x21F       DLC: 3  Data: 0x00 0x00 0x00
21:50:51.605 -> Standard ID: 0x217       DLC: 8  Data: 0xF2 0x80 0x00 0x00 0x80 0xFF 0xFF 0xFF
21:50:51.638 -> Standard ID: 0x1A8       DLC: 8  Data: 0x00 0x00 0x00 0x00 0x00 0x10 0x01 0x29
21:50:51.638 -> Standard ID: 0x036       DLC: 8  Data: 0x00 0x00 0x00 0x0F 0x01 0x00 0x00 0xA0
21:50:51.638 -> Standard ID: 0x2A1       DLC: 7  Data: 0x12 0x04 0x43 0x00 0x63 0x0D 0xDA
21:50:51.638 -> Standard ID: 0x0B6       DLC: 8  Data: 0x00 0x00 0x00 0x00 0x00 0x00 0x00 0xD0
21:50:51.638 -> Standard ID: 0x227       DLC: 4  Data: 0x00 0x00 0x00 0x00
21:50:51.671 -> Standard ID: 0x0B6       DLC: 8  Data: 0x00 0x00 0x00 0x00 0x00 0x00 0x00 0xD0
21:50:51.704 -> Standard ID: 0x167       DLC: 8  Data: 0x00 0x06 0xFF 0xFF 0x7F 0xFF 0x00 0x00
21:50:51.704 -> Standard ID: 0x14C       DLC: 5  Data: 0x00 0x00 0x00 0x00 0x80
21:50:51.704 -> Standard ID: 0x21F       DLC: 3  Data: 0x00 0x00 0x00
21:50:51.704 -> Standard ID: 0x217       DLC: 8  Data: 0xF2 0x80 0x00 0x00 0x80 0xFF 0xFF 0xFF
21:50:51.704 -> Standard ID: 0x168       DLC: 8  Data: 0x00 0x00 0x00 0x00 0x00 0x00 0x00 0x00
21:50:51.737 -> Standard ID: 0x036       DLC: 8  Data: 0x00 0x00 0x00 0x0F 0x01 0x00 0x00 0xA0
21:50:51.737 -> Standard ID: 0x018       DLC: 5  Data: 0x80 0x00 0x00 0x00 0x00
21:50:51.737 -> Standard ID: 0x0B6       DLC: 8  Data: 0x00 0x00 0x00 0x00 0x00 0x00 0x00 0xD0
21:50:51.737 -> Standard ID: 0x161       DLC: 7  Data: 0x00 0x00 0x3C 0x00 0x00 0x00 0x64
21:50:51.771 -> Standard ID: 0x1A1       DLC: 8  Data: 0x7F 0xFF 0x00 0xFF 0xFF 0xFF 0xFF 0xFF
21:50:51.771 -> Standard ID: 0x0B6       DLC: 8  Data: 0x00 0x00 0x00 0x00 0x00 0x00 0x00 0xD0
21:50:51.804 -> Standard ID: 0x167       DLC: 8  Data: 0x00 0x06 0xFF 0xFF 0x7F 0xFF 0x00 0x00
21:50:51.804 -> Standard ID: 0x128       DLC: 8  Data: 0x00 0x00 0x00 0x00 0x00 0x80 0xB0 0x01
21:50:51.804 -> Standard ID: 0x14C       DLC: 5  Data: 0x00 0x00 0x00 0x00 0x80
21:50:51.804 -> Standard ID: 0x3A7       DLC: 8  Data: 0x10 0x00 0x00 0x03 0x66 0x00 0x36 0x05
21:50:51.804 -> Standard ID: 0x217       DLC: 8  Data: 0xF2 0x80 0x00 0x00 0x80 0xFF 0xFF 0xFF
21:50:51.837 -> Standard ID: 0x1A8       DLC: 8  Data: 0x00 0x00 0x00 0x00 0x00 0x10 0x01 0x29
21:50:51.837 -> Standard ID: 0x036       DLC: 8  Data: 0x00 0x00 0x00 0x0F 0x01 0x00 0x00 0xA0
21:50:51.837 -> Standard ID: 0x21F       DLC: 3  Data: 0x00 0x00 0x00
21:50:51.837 -> Standard ID: 0x317       DLC: 8  Data: 0xF3 0x9D 0x92 0xCC 0xD8 0x00 0x86 0x02
21:50:51.837 -> Standard ID: 0x51F       DLC: 8  Data: 0x01 0x00 0x00 0x00 0x00 0x00 0x00 0x00
21:50:51.870 -> Standard ID: 0x220       DLC: 2  Data: 0x00 0x00
21:50:51.870 -> Standard ID: 0x0B6       DLC: 8  Data: 0x00 0x00 0x00 0x00 0x00 0x00 0x00 0xD0
21:50:51.870 -> Standard ID: 0x0DF       DLC: 3  Data: 0x04 0x00 0x40
21:50:51.903 -> Standard ID: 0x525       DLC: 8  Data: 0x05 0x00 0x00 0x00 0x00 0x80 0x00 0x00
21:50:51.903 -> Standard ID: 0x512       DLC: 8  Data: 0x01 0x00 0x00 0x00 0x00 0x80 0x00 0x00
21:50:51.903 -> Standard ID: 0x167       DLC: 8  Data: 0x00 0x06 0xFF 0xFF 0x7F 0xFF 0x00 0x00
21:50:51.903 -> Standard ID: 0x14C       DLC: 5  Data: 0x00 0x00 0x00 0x00 0x80
21:50:51.903 -> Standard ID: 0x21F       DLC: 3  Data: 0x00 0x00 0x00
21:50:51.936 -> Standard ID: 0x217       DLC: 8  Data: 0xF2 0x80 0x00 0x00 0x80 0xFF 0xFF 0xFF
21:50:51.936 -> Standard ID: 0x168       DLC: 8  Data: 0x00 0x00 0x00 0x00 0x00 0x00 0x00 0x00
21:50:51.936 -> Standard ID: 0x036       DLC: 8  Data: 0x00 0x00 0x00 0x0F 0x01 0x00 0x00 0xA0
21:50:51.936 -> Standard ID: 0x018       DLC: 5  Data: 0x80 0x00 0x00 0x00 0x00
21:50:51.936 -> Standard ID: 0x261       DLC: 7  Data: 0x22 0x27 0x0F 0x00 0x50 0x44 0x97
21:50:51.936 -> Standard ID: 0x0B6       DLC: 8  Data: 0x00 0x00 0x00 0x00 0x00 0x00 0x00 0xD0
21:50:51.969 -> Standard ID: 0x361       DLC: 6  Data: 0x01 0x00 0x00 0x60 0x10 0x08
21:50:51.969 -> Standard ID: 0x3F6       DLC: 7  Data: 0x06 0xAF 0xB0 0xCE 0x00 0x84 0x01
21:50:51.969 -> Standard ID: 0x1A1       DLC: 8  Data: 0x7F 0xFF 0x00 0xFF 0xFF 0xFF 0xFF 0xFF
21:50:51.969 -> Standard ID: 0x0B6       DLC: 8  Data: 0x00 0x00 0x00 0x00 0x00 0x00 0x00 0xD0
21:50:52.003 -> Standard ID: 0x0F6       DLC: 8  Data: 0x80 0x3C 0x10 0xF2 0xCA 0x6C 0x6C 0x10
21:50:52.003 -> Standard ID: 0x0B6       DLC: 8  Data: 0x00 0x00 0x00 0x00 0x00 0x00 0x00 0xD0
21:50:52.003 -> Standard ID: 0x167       DLC: 8  Data: 0x00 0x06 0xFF 0xFF 0x7F 0xFF 0x00 0x00
21:50:52.003 -> Standard ID: 0x14C       DLC: 5  Data: 0x00 0x00 0x00 0x00 0x80
21:50:52.003 -> Standard ID: 0x21F       DLC: 3  Data: 0x00 0x00 0x00
21:50:52.003 -> Standard ID: 0x2A0       DLC: 1  Data: 0x00
21:50:52.003 -> Standard ID: 0x217       DLC: 8  Data: 0xF2 0x80 0x00 0x00 0x80 0xFF 0xFF 0xFF
21:50:52.036 -> Standard ID: 0x1A8       DLC: 8  Data: 0x00 0x00 0x00 0x00 0x00 0x10 0x01 0x29
21:50:52.036 -> Standard ID: 0x036       DLC: 8  Data: 0x00 0x00 0x00 0x0F 0x01 0x00 0x00 0xA0
21:50:52.036 -> Standard ID: 0x3B6       DLC: 6  Data: 0x57 0x43 0x4B 0x46 0x56 0x43
21:50:52.036 -> Standard ID: 0x0B6       DLC: 8  Data: 0x00 0x00 0x00 0x00 0x00 0x00 0x00 0xD0
21:50:52.036 -> Standard ID: 0x260       DLC: 8  Data: 0x03 0x03 0x92 0x40 0x00 0xD0 0x00 0x10
21:50:52.069 -> Standard ID: 0x128       DLC: 8  Data: 0x00 0x00 0x00 0x00 0x00 0x80 0xB0 0x01
21:50:52.069 -> Standard ID: 0x15B       DLC: 8  Data: 0x01 0x03 0x92 0x40 0x00 0xC0 0x00 0xF0
21:50:52.102 -> Standard ID: 0x0B6       DLC: 8  Data: 0x00 0x00 0x00 0x00 0x00 0x00 0x00 0xD0
21:50:52.102 -> Standard ID: 0x167       DLC: 8  Data: 0x00 0x06 0xFF 0xFF 0x7F 0xFF 0x00 0x00
21:50:52.102 -> Standard ID: 0x14C       DLC: 5  Data: 0x00 0x00 0x00 0x00 0x80
21:50:52.102 -> Standard ID: 0x21F       DLC: 3  Data: 0x00 0x00 0x00
21:50:52.102 -> Standard ID: 0x217       DLC: 8  Data: 0xF2 0x80 0x00 0x00 0x80 0xFF 0xFF 0xFF
21:50:52.102 -> Standard ID: 0x168       DLC: 8  Data: 0x00 0x00 0x00 0x00 0x00 0x00 0x00 0x00
21:50:52.135 -> Standard ID: 0x036       DLC: 8  Data: 0x00 0x00 0x00 0x0F 0x01 0x00 0x00 0xA0
21:50:52.135 -> Standard ID: 0x018       DLC: 5  Data: 0x80 0x00 0x00 0x00 0x00
21:50:52.135 -> Standard ID: 0x221       DLC: 7  Data: 0x00 0xFF 0xFF 0xFF 0xFF 0xFF 0xFF
21:50:52.135 -> Standard ID: 0x0B6       DLC: 8  Data: 0x00 0x00 0x00 0x00 0x00 0x00 0x00 0xD0
21:50:52.135 -> Standard ID: 0x227       DLC: 4  Data: 0x00 0x00 0x00 0x00
21:50:52.168 -> Standard ID: 0x1A1       DLC: 8  Data: 0x7F 0xFF 0x00 0xFF 0xFF 0xFF 0xFF 0xFF
21:50:52.202 -> Standard ID: 0x0B6       DLC: 8  Data: 0x00 0x00 0x00 0x00 0x00 0x00 0x00 0xD0
21:50:52.202 -> Standard ID: 0x167       DLC: 8  Data: 0x00 0x06 0xFF 0xFF 0x7F 0xFF 0x00 0x00
21:50:52.202 -> Standard ID: 0x128       DLC: 8  Data: 0x00 0x00 0x00 0x00 0x00 0x80 0xB0 0x01
21:50:52.202 -> Standard ID: 0x14C       DLC: 5  Data: 0x00 0x00 0x00 0x00 0x80
21:50:52.202 -> Standard ID: 0x21F       DLC: 3  Data: 0x00 0x00 0x00
21:50:52.202 -> Standard ID: 0x217       DLC: 8  Data: 0xF2 0x80 0x00 0x00 0x80 0xFF 0xFF 0xFF
21:50:52.235 -> Standard ID: 0x1A8       DLC: 8  Data: 0x00 0x00 0x00 0x00 0x00 0x10 0x01 0x29
21:50:52.235 -> Standard ID: 0x036       DLC: 8  Data: 0x00 0x00 0x00 0x0F 0x01 0x00 0x00 0xA0
21:50:52.235 -> Standard ID: 0x2B6       DLC: 8  Data: 0x33 0x34 0x30 0x32 0x38 0x39 0x33 0x37
21:50:52.235 -> Standard ID: 0x0B6       DLC: 8  Data: 0x00 0x00 0x00 0x00 0x00 0x00 0x00 0xD0
21:50:52.268 -> Standard ID: 0x161       DLC: 7  Data: 0x00 0x00 0x3C 0x00 0x00 0x00 0x64
21:50:52.268 -> Standard ID: 0x0B6       DLC: 8  Data: 0x00 0x00 0x00 0x00 0x00 0x00 0x00 0xD0
21:50:52.301 -> Standard ID: 0x167       DLC: 8  Data: 0x00 0x06 0xFF 0xFF 0x7F 0xFF 0x00 0x00
21:50:52.301 -> Standard ID: 0x14C       DLC: 5  Data: 0x00 0x00 0x00 0x00 0x80
21:50:52.301 -> Standard ID: 0x21F       DLC: 3  Data: 0x00 0x00 0x00
21:50:52.301 -> Standard ID: 0x3A7       DLC: 8  Data: 0x10 0x00 0x00 0x03 0x66 0x00 0x36 0x05
21:50:52.301 -> Standard ID: 0x217       DLC: 8  Data: 0xF2 0x80 0x00 0x00 0x80 0xFF 0xFF 0xFF
21:50:52.334 -> Standard ID: 0x168       DLC: 8  Data: 0x00 0x00 0x00 0x00 0x00 0x00 0x00 0x00
21:50:52.334 -> Standard ID: 0x036       DLC: 8  Data: 0x00 0x00 0x00 0x0F 0x01 0x00 0x00 0xA0
21:50:52.334 -> Standard ID: 0x018       DLC: 5  Data: 0x80 0x00 0x00 0x00 0x00
21:50:52.334 -> Standard ID: 0x0B6       DLC: 8  Data: 0x00 0x00 0x00 0x00 0x00 0x00 0x00 0xD0
21:50:52.334 -> Standard ID: 0x220       DLC: 2  Data: 0x00 0x00
21:50:52.367 -> Standard ID: 0x1A1       DLC: 8  Data: 0x7F 0xFF 0x00 0xFF 0xFF 0xFF 0xFF 0xFF
21:50:52.367 -> Standard ID: 0x0DF       DLC: 3  Data: 0x04 0x00 0x40
21:50:52.400 -> Standard ID: 0x0B6       DLC: 8  Data: 0x00 0x00 0x00 0x00 0x00 0x00 0x00 0xD0
21:50:52.400 -> Standard ID: 0x167       DLC: 8  Data: 0x00 0x06 0xFF 0xFF 0x7F 0xFF 0x00 0x00
21:50:52.400 -> Standard ID: 0x128       DLC: 8  Data: 0x00 0x00 0x00 0x00 0x00 0x80 0xB0 0x01
21:50:52.400 -> Standard ID: 0x14C       DLC: 5  Data: 0x00 0x00 0x00 0x00 0x80
21:50:52.400 -> Standard ID: 0x21F       DLC: 3  Data: 0x00 0x00 0x00
21:50:52.434 -> Standard ID: 0x217       DLC: 8  Data: 0xF2 0x80 0x00 0x00 0x80 0xFF 0xFF 0xFF
21:50:52.434 -> Standard ID: 0x1A8       DLC: 8  Data: 0x00 0x00 0x00 0x00 0x00 0x10 0x01 0x29
21:50:52.434 -> Standard ID: 0x036       DLC: 8  Data: 0x00 0x00 0x00 0x0F 0x01 0x00 0x00 0xA0
21:50:52.434 -> Standard ID: 0x0B6       DLC: 8  Data: 0x00 0x00 0x00 0x00 0x00 0x00 0x00 0xD0
21:50:52.434 -> Standard ID: 0x361       DLC: 6  Data: 0x01 0x00 0x00 0x60 0x10 0x08
21:50:52.467 -> Standard ID: 0x0F6       DLC: 8  Data: 0x80 0x3C 0x10 0xF2 0xCA 0x6C 0x6C 0x10
21:50:52.500 -> Standard ID: 0x0B6       DLC: 8  Data: 0x00 0x00 0x00 0x00 0x00 0x00 0x00 0xD0
21:50:52.500 -> Standard ID: 0x167       DLC: 8  Data: 0x00 0x06 0xFF 0xFF 0x7F 0xFF 0x00 0x00
21:50:52.500 -> Standard ID: 0x14C       DLC: 5  Data: 0x00 0x00 0x00 0x00 0x80
21:50:52.500 -> Standard ID: 0x21F       DLC: 3  Data: 0x00 0x00 0x00
21:50:52.500 -> Standard ID: 0x2A0       DLC: 1  Data: 0x00
21:50:52.533 -> Standard ID: 0x217       DLC: 8  Data: 0xF2 0x80 0x00 0x00 0x80 0xFF 0xFF 0xFF
21:50:52.533 -> Standard ID: 0x168       DLC: 8  Data: 0x00 0x00 0x00 0x00 0x00 0x00 0x00 0x00
21:50:52.533 -> Standard ID: 0x036       DLC: 8  Data: 0x00 0x00 0x00 0x0F 0x01 0x00 0x00 0xA0
21:50:52.533 -> Standard ID: 0x018       DLC: 5  Data: 0x80 0x00 0x00 0x00 0x00
21:50:52.533 -> Standard ID: 0x0B6       DLC: 8  Data: 0x00 0x00 0x00 0x00 0x00 0x00 0x00 0xD0
21:50:52.566 -> Standard ID: 0x260       DLC: 8  Data: 0x01 0x03 0x92 0x40 0x00 0xC0 0x00 0x10
21:50:52.566 -> Standard ID: 0x336       DLC: 3  Data: 0x56 0x46 0x33
21:50:52.566 -> Standard ID: 0x1A1       DLC: 8  Data: 0x7F 0xFF 0x00 0xFF 0xFF 0xFF 0xFF 0xFF
21:50:52.566 -> Standard ID: 0x15B       DLC: 8  Data: 0x01 0x03 0x92 0x40 0x00 0xC0 0x00 0xF0
21:50:52.599 -> Standard ID: 0x0B6       DLC: 8  Data: 0x00 0x00 0x00 0x00 0x00 0x00 0x00 0xD0
21:50:52.599 -> Standard ID: 0x167       DLC: 8  Data: 0x00 0x06 0xFF 0xFF 0x7F 0xFF 0x00 0x00
21:50:52.599 -> Standard ID: 0x128       DLC: 8  Data: 0x00 0x00 0x00 0x00 0x00 0x80 0xB0 0x01
21:50:52.599 -> Standard ID: 0x14C       DLC: 5  Data: 0x00 0x00 0x00 0x00 0x80
21:50:52.599 -> Standard ID: 0x21F       DLC: 3  Data: 0x00 0x00 0x00
21:50:52.632 -> Standard ID: 0x217       DLC: 8  Data: 0xF2 0x80 0x00 0x00 0x80 0xFF 0xFF 0xFF
21:50:52.632 -> Standard ID: 0x1A8       DLC: 8  Data: 0x00 0x00 0x00 0x00 0x00 0x10 0x01 0x29
21:50:52.632 -> Standard ID: 0x036       DLC: 8  Data: 0x00 0x00 0x00 0x0F 0x01 0x00 0x00 0xA0
21:50:52.632 -> Standard ID: 0x2A1       DLC: 7  Data: 0x12 0x04 0x43 0x00 0x63 0x0D 0xDA
21:50:52.632 -> Standard ID: 0x0B6       DLC: 8  Data: 0x00 0x00 0x00 0x00 0x00 0x00 0x00 0xD0
21:50:52.665 -> Standard ID: 0x227       DLC: 4  Data: 0x00 0x00 0x00 0x00
21:50:52.699 -> Standard ID: 0x0B6       DLC: 8  Data: 0x00 0x00 0x00 0x00 0x00 0x00 0x00 0xD0
21:50:52.699 -> Standard ID: 0x167       DLC: 8  Data: 0x00 0x06 0xFF 0xFF 0x7F 0xFF 0x00 0x00
21:50:52.699 -> Standard ID: 0x14C       DLC: 5  Data: 0x00 0x00 0x00 0x00 0x80
21:50:52.699 -> Standard ID: 0x21F       DLC: 3  Data: 0x00 0x00 0x00
21:50:52.699 -> Standard ID: 0x217       DLC: 8  Data: 0xF2 0x80 0x00 0x00 0x80 0xFF 0xFF 0xFF
21:50:52.732 -> Standard ID: 0x168       DLC: 8  Data: 0x00 0x00 0x00 0x00 0x00 0x00 0x00 0x00
21:50:52.732 -> Standard ID: 0x018       DLC: 5  Data: 0x80 0x00 0x00 0x00 0x00
21:50:52.732 -> Standard ID: 0x036       DLC: 8  Data: 0x00 0x00 0x00 0x0F 0x01 0x00 0x00 0xA0
21:50:52.732 -> Standard ID: 0x0B6       DLC: 8  Data: 0x00 0x00 0x00 0x00 0x00 0x00 0x00 0xD0
21:50:52.732 -> Standard ID: 0x161       DLC: 7  Data: 0x00 0x00 0x3C 0x00 0x00 0x00 0x64
21:50:52.765 -> Standard ID: 0x1A1       DLC: 8  Data: 0x7F 0xFF 0x00 0xFF 0xFF 0xFF 0xFF 0xFF
21:50:52.798 -> Standard ID: 0x0B6       DLC: 8  Data: 0x00 0x00 0x00 0x00 0x00 0x00 0x00 0xD0
21:50:52.798 -> Standard ID: 0x167       DLC: 8  Data: 0x00 0x06 0xFF 0xFF 0x7F 0xFF 0x00 0x00
21:50:52.798 -> Standard ID: 0x128       DLC: 8  Data: 0x00 0x00 0x00 0x00 0x00 0x80 0xB0 0x01
21:50:52.798 -> Standard ID: 0x14C       DLC: 5  Data: 0x00 0x00 0x00 0x00 0x80
21:50:52.798 -> Standard ID: 0x21F       DLC: 3  Data: 0x00 0x00 0x00
21:50:52.831 -> Standard ID: 0x217       DLC: 8  Data: 0xF2 0x80 0x00 0x00 0x80 0xFF 0xFF 0xFF
21:50:52.831 -> Standard ID: 0x1A8       DLC: 8  Data: 0x00 0x00 0x00 0x00 0x00 0x10 0x01 0x29
21:50:52.831 -> Standard ID: 0x036       DLC: 8  Data: 0x00 0x00 0x00 0x0F 0x01 0x00 0x00 0xA0
21:50:52.831 -> Standard ID: 0x3A7       DLC: 8  Data: 0x10 0x00 0x00 0x03 0x66 0x00 0x36 0x05
21:50:52.831 -> Standard ID: 0x317       DLC: 8  Data: 0xF3 0x9D 0x92 0xCC 0xD8 0x00 0x86 0x02
21:50:52.864 -> Standard ID: 0x0B6       DLC: 8  Data: 0x00 0x00 0x00 0x00 0x00 0x00 0x00 0xD0
21:50:52.864 -> Standard ID: 0x220       DLC: 2  Data: 0x00 0x00
21:50:52.864 -> Standard ID: 0x51F       DLC: 8  Data: 0x01 0x00 0x00 0x00 0x00 0x00 0x00 0x00
21:50:52.898 -> Standard ID: 0x0DF       DLC: 3  Data: 0x04 0x00 0x40
21:50:52.898 -> Standard ID: 0x525       DLC: 8  Data: 0x05 0x00 0x00 0x00 0x00 0x80 0x00 0x00
21:50:52.898 -> Standard ID: 0x512       DLC: 8  Data: 0x01 0x00 0x00 0x00 0x00 0x80 0x00 0x00
21:50:52.898 -> Standard ID: 0x167       DLC: 8  Data: 0x00 0x06 0xFF 0xFF 0x7F 0xFF 0x00 0x00
21:50:52.898 -> Standard ID: 0x14C       DLC: 5  Data: 0x00 0x00 0x00 0x00 0x80
21:50:52.931 -> Standard ID: 0x21F       DLC: 3  Data: 0x00 0x00 0x00
21:50:52.931 -> Standard ID: 0x217       DLC: 8  Data: 0xF2 0x80 0x00 0x00 0x80 0xFF 0xFF 0xFF
21:50:52.931 -> Standard ID: 0x168       DLC: 8  Data: 0x00 0x00 0x00 0x00 0x00 0x00 0x00 0x00
21:50:52.931 -> Standard ID: 0x018       DLC: 5  Data: 0x80 0x00 0x00 0x00 0x00
21:50:52.931 -> Standard ID: 0x036       DLC: 8  Data: 0x00 0x00 0x00 0x0F 0x01 0x00 0x00 0xA0
21:50:52.931 -> Standard ID: 0x261       DLC: 7  Data: 0x22 0x27 0x0F 0x00 0x50 0x44 0x97
21:50:52.964 -> Standard ID: 0x0B6       DLC: 8  Data: 0x00 0x00 0x00 0x00 0x00 0x00 0x00 0xD0
21:50:52.964 -> Standard ID: 0x361       DLC: 6  Data: 0x01 0x00 0x00 0x60 0x10 0x08
21:50:52.964 -> Standard ID: 0x3F6       DLC: 7  Data: 0x06 0xAF 0xC0 0xCE 0x00 0x84 0x01
21:50:52.964 -> Standard ID: 0x1A1       DLC: 8  Data: 0x7F 0xFF 0x00 0xFF 0xFF 0xFF 0xFF 0xFF
21:50:52.964 -> Standard ID: 0x0B6       DLC: 8  Data: 0x00 0x00 0x00 0x00 0x00 0x00 0x00 0xD0
21:50:52.997 -> Standard ID: 0x0F6       DLC: 8  Data: 0x80 0x3C 0x10 0xF2 0xCA 0x6C 0x6C 0x10
21:50:52.997 -> Standard ID: 0x0B6       DLC: 8  Data: 0x00 0x00 0x00 0x00 0x00 0x00 0x00 0xD0
21:50:52.997 -> Standard ID: 0x167       DLC: 8  Data: 0x00 0x06 0xFF 0xFF 0x7F 0xFF 0x00 0x00
21:50:52.997 -> Standard ID: 0x14C       DLC: 5  Data: 0x00 0x00 0x00 0x00 0x80
21:50:52.997 -> Standard ID: 0x128       DLC: 8  Data: 0x00 0x00 0x00 0x00 0x00 0x80 0xB0 0x01
21:50:53.030 -> Standard ID: 0x21F       DLC: 3  Data: 0x00 0x00 0x00
21:50:53.030 -> Standard ID: 0x217       DLC: 8  Data: 0xF2 0x80 0x00 0x00 0x80 0xFF 0xFF 0xFF
21:50:53.030 -> Standard ID: 0x1A8       DLC: 8  Data: 0x00 0x00 0x00 0x00 0x00 0x10 0x01 0x29
21:50:53.030 -> Standard ID: 0x036       DLC: 8  Data: 0x00 0x00 0x00 0x0F 0x01 0x00 0x00 0xA0
21:50:53.030 -> Standard ID: 0x3B6       DLC: 6  Data: 0x57 0x43 0x4B 0x46 0x56 0x43
21:50:53.030 -> Standard ID: 0x0B6       DLC: 8  Data: 0x00 0x00 0x00 0x00 0x00 0x00 0x00 0xD0
21:50:53.063 -> Standard ID: 0x260       DLC: 8  Data: 0x02 0x03 0x92 0x40 0x00 0xD0 0x00 0x10
21:50:53.063 -> Standard ID: 0x2A0       DLC: 1  Data: 0x00
21:50:53.063 -> Standard ID: 0x15B       DLC: 8  Data: 0x01 0x03 0x92 0x40 0x00 0xC0 0x00 0xF0
21:50:53.096 -> Standard ID: 0x0B6       DLC: 8  Data: 0x00 0x00 0x00 0x00 0x00 0x00 0x00 0xD0
21:50:53.096 -> Standard ID: 0x167       DLC: 8  Data: 0x00 0x06 0xFF 0xFF 0x7F 0xFF 0x00 0x00
21:50:53.096 -> Standard ID: 0x14C       DLC: 5  Data: 0x00 0x00 0x00 0x00 0x80
21:50:53.096 -> Standard ID: 0x21F       DLC: 3  Data: 0x00 0x00 0x00
21:50:53.096 -> Standard ID: 0x217       DLC: 8  Data: 0xF2 0x80 0x00 0x00 0x80 0xFF 0xFF 0xFF
21:50:53.129 -> Standard ID: 0x168       DLC: 8  Data: 0x00 0x00 0x00 0x00 0x00 0x00 0x00 0x00
21:50:53.129 -> Standard ID: 0x018       DLC: 5  Data: 0x80 0x00 0x00 0x00 0x00
21:50:53.129 -> Standard ID: 0x036       DLC: 8  Data: 0x00 0x00 0x00 0x0F 0x01 0x00 0x00 0xA0
21:50:53.129 -> Standard ID: 0x221       DLC: 7  Data: 0x00 0xFF 0xFF 0xFF 0xFF 0xFF 0xFF
21:50:53.129 -> Standard ID: 0x0B6       DLC: 8  Data: 0x00 0x00 0x00 0x00 0x00 0x00 0x00 0xD0
21:50:53.163 -> Standard ID: 0x227       DLC: 4  Data: 0x00 0x00 0x00 0x00
21:50:53.163 -> Standard ID: 0x1A1       DLC: 8  Data: 0x7F 0xFF 0x00 0xFF 0xFF 0xFF 0xFF 0xFF
21:50:53.196 -> Standard ID: 0x0B6       DLC: 8  Data: 0x00 0x00 0x00 0x00 0x00 0x00 0x00 0xD0
21:50:53.196 -> Standard ID: 0x167       DLC: 8  Data: 0x00 0x06 0xFF 0xFF 0x7F 0xFF 0x00 0x00
21:50:53.196 -> Standard ID: 0x128       DLC: 8  Data: 0x00 0x00 0x00 0x00 0x00 0x80 0xB0 0x01
21:50:53.196 -> Standard ID: 0x14C       DLC: 5  Data: 0x00 0x00 0x00 0x00 0x80
21:50:53.196 -> Standard ID: 0x217       DLC: 8  Data: 0xF2 0x80 0x00 0x00 0x80 0xFF 0xFF 0xFF
21:50:53.229 -> Standard ID: 0x21F       DLC: 3  Data: 0x00 0x00 0x00
21:50:53.229 -> Standard ID: 0x1A8       DLC: 8  Data: 0x00 0x00 0x00 0x00 0x00 0x10 0x01 0x29
21:50:53.229 -> Standard ID: 0x036       DLC: 8  Data: 0x00 0x00 0x00 0x0F 0x01 0x00 0x00 0xA0
21:50:53.229 -> Standard ID: 0x2B6       DLC: 8  Data: 0x33 0x34 0x30 0x32 0x38 0x39 0x33 0x37
21:50:53.229 -> Standard ID: 0x0B6       DLC: 8  Data: 0x00 0x00 0x00 0x00 0x00 0x00 0x00 0xD0
21:50:53.262 -> Standard ID: 0x161       DLC: 7  Data: 0x00 0x00 0x3C 0x00 0x00 0x00 0x64
21:50:53.295 -> Standard ID: 0x0B6       DLC: 8  Data: 0x00 0x00 0x00 0x00 0x00 0x00 0x00 0xD0
21:50:53.295 -> Standard ID: 0x167       DLC: 8  Data: 0x00 0x06 0xFF 0xFF 0x7F 0xFF 0x00 0x00
21:50:53.295 -> Standard ID: 0x14C       DLC: 5  Data: 0x00 0x00 0x00 0x00 0x80
21:50:53.295 -> Standard ID: 0x3A7       DLC: 8  Data: 0x10 0x00 0x00 0x03 0x66 0x00 0x36 0x05
21:50:53.328 -> Standard ID: 0x217       DLC: 8  Data: 0xF2 0x80 0x00 0x00 0x80 0xFF 0xFF 0xFF
21:50:53.328 -> Standard ID: 0x21F       DLC: 3  Data: 0x00 0x00 0x00
21:50:53.328 -> Standard ID: 0x168       DLC: 8  Data: 0x00 0x00 0x00 0x00 0x00 0x00 0x00 0x00
21:50:53.328 -> Standard ID: 0x018       DLC: 5  Data: 0x80 0x00 0x00 0x00 0x00
21:50:53.328 -> Standard ID: 0x036       DLC: 8  Data: 0x00 0x00 0x00 0x0F 0x01 0x00 0x00 0xA0
21:50:53.361 -> Standard ID: 0x0B6       DLC: 8  Data: 0x00 0x00 0x00 0x00 0x00 0x00 0x00 0xD0
21:50:53.361 -> Standard ID: 0x220       DLC: 2  Data: 0x00 0x00
21:50:53.361 -> Standard ID: 0x1A1       DLC: 8  Data: 0x7F 0xFF 0x00 0xFF 0xFF 0xFF 0xFF 0xFF
21:50:53.395 -> Standard ID: 0x0DF       DLC: 3  Data: 0x04 0x00 0x40
21:50:53.395 -> Standard ID: 0x0B6       DLC: 8  Data: 0x00 0x00 0x00 0x00 0x00 0x00 0x00 0xD0
21:50:53.395 -> Standard ID: 0x167       DLC: 8  Data: 0x00 0x06 0xFF 0xFF 0x7F 0xFF 0x00 0x00
21:50:53.395 -> Standard ID: 0x128       DLC: 8  Data: 0x00 0x00 0x00 0x00 0x00 0x80 0xB0 0x01
21:50:53.395 -> Standard ID: 0x14C       DLC: 5  Data: 0x00 0x00 0x00 0x00 0x80
21:50:53.428 -> Standard ID: 0x217       DLC: 8  Data: 0xF2 0x80 0x00 0x00 0x80 0xFF 0xFF 0xFF
21:50:53.428 -> Standard ID: 0x21F       DLC: 3  Data: 0x00 0x00 0x00
21:50:53.428 -> Standard ID: 0x036       DLC: 8  Data: 0x00 0x00 0x00 0x0F 0x01 0x00 0x00 0xA0
21:50:53.428 -> Standard ID: 0x1A8       DLC: 8  Data: 0x00 0x00 0x00 0x00 0x00 0x10 0x01 0x29
21:50:53.428 -> Standard ID: 0x0B6       DLC: 8  Data: 0x00 0x00 0x00 0x00 0x00 0x00 0x00 0xD0
21:50:53.461 -> Standard ID: 0x361       DLC: 6  Data: 0x01 0x00 0x00 0x60 0x10 0x08
21:50:53.494 -> Standard ID: 0x0F6       DLC: 8  Data: 0x80 0x3C 0x10 0xF2 0xCA 0x6C 0x6C 0x10
21:50:53.494 -> Standard ID: 0x0B6       DLC: 8  Data: 0x00 0x00 0x00 0x00 0x00 0x00 0x00 0xD0
21:50:53.494 -> Standard ID: 0x167       DLC: 8  Data: 0x00 0x06 0xFF 0xFF 0x7F 0xFF 0x00 0x00
21:50:53.494 -> Standard ID: 0x14C       DLC: 5  Data: 0x00 0x00 0x00 0x00 0x80
21:50:53.494 -> Standard ID: 0x2A0       DLC: 1  Data: 0x00
21:50:53.494 -> Standard ID: 0x217       DLC: 8  Data: 0xF2 0x80 0x00 0x00 0x80 0xFF 0xFF 0xFF
21:50:53.527 -> Standard ID: 0x21F       DLC: 3  Data: 0x00 0x00 0x00
21:50:53.527 -> Standard ID: 0x168       DLC: 8  Data: 0x00 0x00 0x00 0x00 0x00 0x00 0x00 0x00
21:50:53.527 -> Standard ID: 0x018       DLC: 5  Data: 0x80 0x00 0x00 0x00 0x00
21:50:53.527 -> Standard ID: 0x036       DLC: 8  Data: 0x00 0x00 0x00 0x0F 0x01 0x00 0x00 0xA0
21:50:53.527 -> Standard ID: 0x336       DLC: 3  Data: 0x56 0x46 0x33
21:50:53.560 -> Standard ID: 0x0B6       DLC: 8  Data: 0x00 0x00 0x00 0x00 0x00 0x00 0x00 0xD0
21:50:53.560 -> Standard ID: 0x260       DLC: 8  Data: 0x03 0x03 0x92 0x40 0x00 0xD0 0x00 0x10
21:50:53.560 -> Standard ID: 0x1A1       DLC: 8  Data: 0x7F 0xFF 0x00 0xFF 0xFF 0xFF 0xFF 0xFF
21:50:53.560 -> Standard ID: 0x15B       DLC: 8  Data: 0x01 0x03 0x92 0x40 0x00 0xC0 0x00 0xF0
21:50:53.593 -> Standard ID: 0x0B6       DLC: 8  Data: 0x00 0x00 0x00 0x00 0x00 0x00 0x00 0xD0
21:50:53.593 -> Standard ID: 0x167       DLC: 8  Data: 0x00 0x06 0xFF 0xFF 0x7F 0xFF 0x00 0x00
21:50:53.593 -> Standard ID: 0x128       DLC: 8  Data: 0x00 0x00 0x00 0x00 0x00 0x80 0xB0 0x01
21:50:53.593 -> Standard ID: 0x14C       DLC: 5  Data: 0x00 0x00 0x00 0x00 0x80
21:50:53.626 -> Standard ID: 0x217       DLC: 8  Data: 0xF2 0x80 0x00 0x00 0x80 0xFF 0xFF 0xFF
21:50:53.626 -> Standard ID: 0x21F       DLC: 3  Data: 0x00 0x00 0x00
21:50:53.626 -> Standard ID: 0x1A8       DLC: 8  Data: 0x00 0x00 0x00 0x00 0x00 0x10 0x01 0x29
21:50:53.626 -> Standard ID: 0x036       DLC: 8  Data: 0x00 0x00 0x00 0x0F 0x01 0x00 0x00 0xA0
21:50:53.626 -> Standard ID: 0x2A1       DLC: 7  Data: 0x12 0x04 0x43 0x00 0x63 0x0D 0xDA
21:50:53.660 -> Standard ID: 0x0B6       DLC: 8  Data: 0x00 0x00 0x00 0x00 0x00 0x00 0x00 0xD0
21:50:53.660 -> Standard ID: 0x227       DLC: 4  Data: 0x00 0x00 0x00 0x00
21:50:53.693 -> Standard ID: 0x0B6       DLC: 8  Data: 0x00 0x00 0x00 0x00 0x00 0x00 0x00 0xD0
21:50:53.693 -> Standard ID: 0x167       DLC: 8  Data: 0x00 0x06 0xFF 0xFF 0x7F 0xFF 0x00 0x00
21:50:53.693 -> Standard ID: 0x14C       DLC: 5  Data: 0x00 0x00 0x00 0x00 0x80
21:50:53.693 -> Standard ID: 0x217       DLC: 8  Data: 0xF2 0x80 0x00 0x00 0x80 0xFF 0xFF 0xFF
21:50:53.726 -> Standard ID: 0x21F       DLC: 3  Data: 0x00 0x00 0x00
21:50:53.726 -> Standard ID: 0x168       DLC: 8  Data: 0x00 0x00 0x00 0x00 0x00 0x00 0x00 0x00
21:50:53.726 -> Standard ID: 0x018       DLC: 5  Data: 0x80 0x00 0x00 0x00 0x00
21:50:53.726 -> Standard ID: 0x036       DLC: 8  Data: 0x00 0x00 0x00 0x0F 0x01 0x00 0x00 0xA0
21:50:53.726 -> Standard ID: 0x0B6       DLC: 8  Data: 0x00 0x00 0x00 0x00 0x00 0x00 0x00 0xD0
21:50:53.759 -> Standard ID: 0x161       DLC: 7  Data: 0x00 0x00 0x3C 0x00 0x00 0x00 0x64
21:50:53.759 -> Standard ID: 0x1A1       DLC: 8  Data: 0x7F 0xFF 0x00 0xFF 0xFF 0xFF 0xFF 0xFF
21:50:53.792 -> Standard ID: 0x0B6       DLC: 8  Data: 0x00 0x00 0x00 0x00 0x00 0x00 0x00 0xD0
21:50:53.792 -> Standard ID: 0x167       DLC: 8  Data: 0x00 0x06 0xFF 0xFF 0x7F 0xFF 0x00 0x00
21:50:53.792 -> Standard ID: 0x128       DLC: 8  Data: 0x00 0x00 0x00 0x00 0x00 0x80 0xB0 0x01
21:50:53.792 -> Standard ID: 0x14C       DLC: 5  Data: 0x00 0x00 0x00 0x00 0x80
21:50:53.825 -> Standard ID: 0x3A7       DLC: 8  Data: 0x10 0x00 0x00 0x03 0x66 0x00 0x36 0x05
21:50:53.825 -> Standard ID: 0x21F       DLC: 3  Data: 0x00 0x00 0x00
21:50:53.825 -> Standard ID: 0x1A8       DLC: 8  Data: 0x00 0x00 0x00 0x00 0x00 0x10 0x01 0x29
21:50:53.825 -> Standard ID: 0x036       DLC: 8  Data: 0x00 0x00 0x00 0x0F 0x01 0x00 0x00 0xA0
21:50:53.825 -> Standard ID: 0x317       DLC: 8  Data: 0xF3 0x9D 0x92 0xCC 0xD8 0x00 0x86 0x02
21:50:53.858 -> Standard ID: 0x51F       DLC: 8  Data: 0x01 0x00 0x00 0x00 0x00 0x00 0x00 0x00
21:50:53.858 -> Standard ID: 0x0B6       DLC: 8  Data: 0x00 0x00 0x00 0x00 0x00 0x00 0x00 0xD0
21:50:53.858 -> Standard ID: 0x220       DLC: 2  Data: 0x00 0x00
21:50:53.858 -> Standard ID: 0x217       DLC: 8  Data: 0xF2 0x80 0x00 0x00 0x80 0xFF 0xFF 0xFF
21:50:53.892 -> Standard ID: 0x0DF       DLC: 3  Data: 0x04 0x00 0x40
21:50:53.892 -> Standard ID: 0x525       DLC: 8  Data: 0x05 0x00 0x00 0x00 0x00 0x80 0x00 0x00
21:50:53.892 -> Standard ID: 0x512       DLC: 8  Data: 0x01 0x00 0x00 0x00 0x00 0x80 0x00 0x00
21:50:53.892 -> Standard ID: 0x167       DLC: 8  Data: 0x00 0x06 0xFF 0xFF 0x7F 0xFF 0x00 0x00
21:50:53.925 -> Standard ID: 0x14C       DLC: 5  Data: 0x00 0x00 0x00 0x00 0x80
21:50:53.925 -> Standard ID: 0x217       DLC: 8  Data: 0xF2 0x80 0x00 0x00 0x80 0xFF 0xFF 0xFF
21:50:53.925 -> Standard ID: 0x21F       DLC: 3  Data: 0x00 0x00 0x00
21:50:53.925 -> Standard ID: 0x168       DLC: 8  Data: 0x00 0x00 0x00 0x00 0x00 0x00 0x00 0x00
21:50:53.925 -> Standard ID: 0x018       DLC: 5  Data: 0x80 0x00 0x00 0x00 0x00
21:50:53.925 -> Standard ID: 0x036       DLC: 8  Data: 0x00 0x00 0x00 0x0F 0x01 0x00 0x00 0xA0
21:50:53.958 -> Standard ID: 0x261       DLC: 7  Data: 0x22 0x27 0x0F 0x00 0x50 0x44 0x97
21:50:53.958 -> Standard ID: 0x0B6       DLC: 8  Data: 0x00 0x00 0x00 0x00 0x00 0x00 0x00 0xD0
21:50:53.958 -> Standard ID: 0x361       DLC: 6  Data: 0x01 0x00 0x00 0x60 0x10 0x08
21:50:53.958 -> Standard ID: 0x3F6       DLC: 7  Data: 0x06 0xAF 0xD0 0xCE 0x00 0x84 0x01
21:50:53.958 -> Standard ID: 0x1A1       DLC: 8  Data: 0x7F 0xFF 0x00 0xFF 0xFF 0xFF 0xFF 0xFF
21:50:53.991 -> Standard ID: 0x0B6       DLC: 8  Data: 0x00 0x00 0x00 0x00 0x00 0x00 0x00 0xD0
21:50:53.991 -> Standard ID: 0x0F6       DLC: 8  Data: 0x80 0x3C 0x10 0xF2 0xCA 0x6C 0x6C 0x10
21:50:53.991 -> Standard ID: 0x0B6       DLC: 8  Data: 0x00 0x00 0x00 0x00 0x00 0x00 0x00 0xD0
21:50:53.991 -> Standard ID: 0x167       DLC: 8  Data: 0x00 0x06 0xFF 0xFF 0x7F 0xFF 0x00 0x00
21:50:53.991 -> Standard ID: 0x14C       DLC: 5  Data: 0x00 0x00 0x00 0x00 0x80
21:50:54.024 -> Standard ID: 0x128       DLC: 8  Data: 0x00 0x00 0x00 0x00 0x00 0x80 0xB0 0x01
21:50:54.024 -> Standard ID: 0x2A0       DLC: 1  Data: 0x00
21:50:54.024 -> Standard ID: 0x21F       DLC: 3  Data: 0x00 0x00 0x00
21:50:54.024 -> Standard ID: 0x1A8       DLC: 8  Data: 0x00 0x00 0x00 0x00 0x00 0x10 0x01 0x29
21:50:54.024 -> Standard ID: 0x036       DLC: 8  Data: 0x00 0x00 0x00 0x0F 0x01 0x00 0x00 0xA0
21:50:54.024 -> Standard ID: 0x3B6       DLC: 6  Data: 0x57 0x43 0x4B 0x46 0x56 0x43
21:50:54.057 -> Standard ID: 0x0B6       DLC: 8  Data: 0x00 0x00 0x00 0x00 0x00 0x00 0x00 0xD0
21:50:54.057 -> Standard ID: 0x260       DLC: 8  Data: 0x01 0x03 0x92 0x40 0x00 0xC0 0x00 0x10
21:50:54.057 -> Standard ID: 0x217       DLC: 8  Data: 0xF2 0x80 0x00 0x00 0x80 0xFF 0xFF 0xFF
21:50:54.057 -> Standard ID: 0x15B       DLC: 8  Data: 0x01 0x03 0x92 0x40 0x00 0xC0 0x00 0xF0
21:50:54.090 -> Standard ID: 0x0B6       DLC: 8  Data: 0x00 0x00 0x00 0x00 0x00 0x00 0x00 0xD0
21:50:54.090 -> Standard ID: 0x167       DLC: 8  Data: 0x00 0x06 0xFF 0xFF 0x7F 0xFF 0x00 0x00
21:50:54.090 -> Standard ID: 0x14C       DLC: 5  Data: 0x00 0x00 0x00 0x00 0x80
21:50:54.090 -> Standard ID: 0x217       DLC: 8  Data: 0xF2 0x80 0x00 0x00 0x80 0xFF 0xFF 0xFF
21:50:54.123 -> Standard ID: 0x21F       DLC: 3  Data: 0x00 0x00 0x00
21:50:54.123 -> Standard ID: 0x168       DLC: 8  Data: 0x00 0x00 0x00 0x00 0x00 0x00 0x00 0x00
21:50:54.123 -> Standard ID: 0x018       DLC: 5  Data: 0x80 0x00 0x00 0x00 0x00
21:50:54.123 -> Standard ID: 0x036       DLC: 8  Data: 0x00 0x00 0x00 0x0F 0x01 0x00 0x00 0xA0
21:50:54.123 -> Standard ID: 0x221       DLC: 7  Data: 0x00 0xFF 0xFF 0xFF 0xFF 0xFF 0xFF
21:50:54.157 -> Standard ID: 0x0B6       DLC: 8  Data: 0x00 0x00 0x00 0x00 0x00 0x00 0x00 0xD0
21:50:54.157 -> Standard ID: 0x227       DLC: 4  Data: 0x00 0x00 0x00 0x00
21:50:54.157 -> Standard ID: 0x1A1       DLC: 8  Data: 0x7F 0xFF 0x00 0xFF 0xFF 0xFF 0xFF 0xFF
21:50:54.190 -> Standard ID: 0x0B6       DLC: 8  Data: 0x00 0x00 0x00 0x00 0x00 0x00 0x00 0xD0
21:50:54.190 -> Standard ID: 0x167       DLC: 8  Data: 0x00 0x06 0xFF 0xFF 0x7F 0xFF 0x00 0x00
21:50:54.190 -> Standard ID: 0x128       DLC: 8  Data: 0x00 0x00 0x00 0x00 0x00 0x80 0xB0 0x01
21:50:54.190 -> Standard ID: 0x14C       DLC: 5  Data: 0x00 0x00 0x00 0x00 0x80
21:50:54.223 -> Standard ID: 0x217       DLC: 8  Data: 0xF2 0x80 0x00 0x00 0x80 0xFF 0xFF 0xFF
21:50:54.223 -> Standard ID: 0x21F       DLC: 3  Data: 0x00 0x00 0x00
21:50:54.223 -> Standard ID: 0x1A8       DLC: 8  Data: 0x00 0x00 0x00 0x00 0x00 0x10 0x01 0x29
21:50:54.223 -> Standard ID: 0x036       DLC: 8  Data: 0x00 0x00 0x00 0x0F 0x01 0x00 0x00 0xA0
21:50:54.223 -> Standard ID: 0x2B6       DLC: 8  Data: 0x33 0x34 0x30 0x32 0x38 0x39 0x33 0x37
21:50:54.256 -> Standard ID: 0x0B6       DLC: 8  Data: 0x00 0x00 0x00 0x00 0x00 0x00 0x00 0xD0
21:50:54.256 -> Standard ID: 0x161       DLC: 7  Data: 0x00 0x00 0x3C 0x00 0x00 0x00 0x64
21:50:54.289 -> Standard ID: 0x0B6       DLC: 8  Data: 0x00 0x00 0x00 0x00 0x00 0x00 0x00 0xD0
21:50:54.289 -> Standard ID: 0x167       DLC: 8  Data: 0x00 0x06 0xFF 0xFF 0x7F 0xFF 0x00 0x00
21:50:54.289 -> Standard ID: 0x14C       DLC: 5  Data: 0x00 0x00 0x00 0x00 0x80
21:50:54.289 -> Standard ID: 0x217       DLC: 8  Data: 0xF2 0x80 0x00 0x00 0x80 0xFF 0xFF 0xFF
21:50:54.322 -> Standard ID: 0x3A7       DLC: 8  Data: 0x10 0x00 0x00 0x03 0x66 0x00 0x36 0x05
21:50:54.322 -> Standard ID: 0x21F       DLC: 3  Data: 0x00 0x00 0x00
21:50:54.322 -> Standard ID: 0x168       DLC: 8  Data: 0x00 0x00 0x00 0x00 0x00 0x00 0x00 0x00
21:50:54.322 -> Standard ID: 0x018       DLC: 5  Data: 0x80 0x00 0x00 0x00 0x00
21:50:54.322 -> Standard ID: 0x036       DLC: 8  Data: 0x00 0x00 0x00 0x0F 0x01 0x00 0x00 0xA0
21:50:54.355 -> Standard ID: 0x0B6       DLC: 8  Data: 0x00 0x00 0x00 0x00 0x00 0x00 0x00 0xD0
21:50:54.355 -> Standard ID: 0x220       DLC: 2  Data: 0x00 0x00
21:50:54.355 -> Standard ID: 0x1A1       DLC: 8  Data: 0x7F 0xFF 0x00 0xFF 0xFF 0xFF 0xFF 0xFF
21:50:54.389 -> Standard ID: 0x0DF       DLC: 3  Data: 0x04 0x00 0x40
21:50:54.389 -> Standard ID: 0x0B6       DLC: 8  Data: 0x00 0x00 0x00 0x00 0x00 0x00 0x00 0xD0
21:50:54.389 -> Standard ID: 0x167       DLC: 8  Data: 0x00 0x06 0xFF 0xFF 0x7F 0xFF 0x00 0x00
21:50:54.389 -> Standard ID: 0x128       DLC: 8  Data: 0x00 0x00 0x00 0x00 0x00 0x80 0xB0 0x01
21:50:54.422 -> Standard ID: 0x14C       DLC: 5  Data: 0x00 0x00 0x00 0x00 0x80
21:50:54.422 -> Standard ID: 0x217       DLC: 8  Data: 0xF2 0x80 0x00 0x00 0x80 0xFF 0xFF 0xFF
21:50:54.422 -> Standard ID: 0x21F       DLC: 3  Data: 0x00 0x00 0x00
21:50:54.422 -> Standard ID: 0x036       DLC: 8  Data: 0x00 0x00 0x00 0x0F 0x01 0x00 0x00 0xA0
21:50:54.422 -> Standard ID: 0x1A8       DLC: 8  Data: 0x00 0x00 0x00 0x00 0x00 0x10 0x01 0x29
21:50:54.455 -> Standard ID: 0x0B6       DLC: 8  Data: 0x00 0x00 0x00 0x00 0x00 0x00 0x00 0xD0
21:50:54.455 -> Standard ID: 0x361       DLC: 6  Data: 0x01 0x00 0x00 0x60 0x10 0x08
21:50:54.488 -> Standard ID: 0x0F6       DLC: 8  Data: 0x80 0x3C 0x10 0xF2 0xCA 0x6C 0x6C 0x10
21:50:54.488 -> Standard ID: 0x0B6       DLC: 8  Data: 0x00 0x00 0x00 0x00 0x00 0x00 0x00 0xD0
21:50:54.488 -> Standard ID: 0x167       DLC: 8  Data: 0x00 0x06 0xFF 0xFF 0x7F 0xFF 0x00 0x00
21:50:54.488 -> Standard ID: 0x14C       DLC: 5  Data: 0x00 0x00 0x00 0x00 0x80
21:50:54.521 -> Standard ID: 0x2A0       DLC: 1  Data: 0x00
21:50:54.521 -> Standard ID: 0x217       DLC: 8  Data: 0xF2 0x80 0x00 0x00 0x80 0xFF 0xFF 0xFF
21:50:54.521 -> Standard ID: 0x21F       DLC: 3  Data: 0x00 0x00 0x00
21:50:54.521 -> Standard ID: 0x168       DLC: 8  Data: 0x00 0x00 0x00 0x00 0x00 0x00 0x00 0x00
21:50:54.521 -> Standard ID: 0x018       DLC: 5  Data: 0x80 0x00 0x00 0x00 0x00
21:50:54.521 -> Standard ID: 0x036       DLC: 8  Data: 0x00 0x00 0x00 0x0F 0x01 0x00 0x00 0xA0
21:50:54.554 -> Standard ID: 0x336       DLC: 3  Data: 0x56 0x46 0x33
21:50:54.554 -> Standard ID: 0x0B6       DLC: 8  Data: 0x00 0x00 0x00 0x00 0x00 0x00 0x00 0xD0
21:50:54.554 -> Standard ID: 0x260       DLC: 8  Data: 0x02 0x03 0x92 0x40 0x00 0xD0 0x00 0x10
21:50:54.554 -> Standard ID: 0x1A1       DLC: 8  Data: 0x7F 0xFF 0x00 0xFF 0xFF 0xFF 0xFF 0xFF
21:50:54.554 -> Standard ID: 0x15B       DLC: 8  Data: 0x01 0x03 0x92 0x40 0x00 0xC0 0x00 0xF0
21:50:54.587 -> Standard ID: 0x0B6       DLC: 8  Data: 0x00 0x00 0x00 0x00 0x00 0x00 0x00 0xD0
21:50:54.587 -> Standard ID: 0x167       DLC: 8  Data: 0x00 0x06 0xFF 0xFF 0x7F 0xFF 0x00 0x00
21:50:54.587 -> Standard ID: 0x128       DLC: 8  Data: 0x00 0x00 0x00 0x00 0x00 0x80 0xB0 0x01
21:50:54.621 -> Standard ID: 0x14C       DLC: 5  Data: 0x00 0x00 0x00 0x00 0x80
21:50:54.621 -> Standard ID: 0x217       DLC: 8  Data: 0xF2 0x80 0x00 0x00 0x80 0xFF 0xFF 0xFF
21:50:54.621 -> Standard ID: 0x21F       DLC: 3  Data: 0x00 0x00 0x00
21:50:54.621 -> Standard ID: 0x1A8       DLC: 8  Data: 0x00 0x00 0x00 0x00 0x00 0x10 0x01 0x29
21:50:54.621 -> Standard ID: 0x036       DLC: 8  Data: 0x00 0x00 0x00 0x0F 0x01 0x00 0x00 0xA0
21:50:54.621 -> Standard ID: 0x2A1       DLC: 7  Data: 0x12 0x04 0x43 0x00 0x63 0x0D 0xDA
21:50:54.654 -> Standard ID: 0x0B6       DLC: 8  Data: 0x00 0x00 0x00 0x00 0x00 0x00 0x00 0xD0
21:50:54.654 -> Standard ID: 0x227       DLC: 4  Data: 0x00 0x00 0x00 0x00
21:50:54.687 -> Standard ID: 0x0B6       DLC: 8  Data: 0x00 0x00 0x00 0x00 0x00 0x00 0x00 0xD0
21:50:54.687 -> Standard ID: 0x167       DLC: 8  Data: 0x00 0x06 0xFF 0xFF 0x7F 0xFF 0x00 0x00
21:50:54.687 -> Standard ID: 0x14C       DLC: 5  Data: 0x00 0x00 0x00 0x00 0x80
21:50:54.720 -> Standard ID: 0x217       DLC: 8  Data: 0xF2 0x80 0x00 0x00 0x80 0xFF 0xFF 0xFF
21:50:54.720 -> Standard ID: 0x21F       DLC: 3  Data: 0x00 0x00 0x00
21:50:54.720 -> Standard ID: 0x168       DLC: 8  Data: 0x00 0x00 0x00 0x00 0x00 0x00 0x00 0x00
21:50:54.720 -> Standard ID: 0x018       DLC: 5  Data: 0x80 0x00 0x00 0x00 0x00
21:50:54.720 -> Standard ID: 0x036       DLC: 8  Data: 0x00 0x00 0x00 0x0F 0x01 0x00 0x00 0xA0
21:50:54.753 -> Standard ID: 0x0B6       DLC: 8  Data: 0x00 0x00 0x00 0x00 0x00 0x00 0x00 0xD0
21:50:54.753 -> Standard ID: 0x161       DLC: 7  Data: 0x00 0x00 0x3C 0x00 0x00 0x00 0x64
21:50:54.753 -> Standard ID: 0x1A1       DLC: 8  Data: 0x7F 0xFF 0x00 0xFF 0xFF 0xFF 0xFF 0xFF
21:50:54.786 -> Standard ID: 0x0B6       DLC: 8  Data: 0x00 0x00 0x00 0x00 0x00 0x00 0x00 0xD0
21:50:54.786 -> Standard ID: 0x167       DLC: 8  Data: 0x00 0x06 0xFF 0xFF 0x7F 0xFF 0x00 0x00
21:50:54.786 -> Standard ID: 0x128       DLC: 8  Data: 0x00 0x00 0x00 0x00 0x00 0x80 0xB0 0x01
21:50:54.819 -> Standard ID: 0x14C       DLC: 5  Data: 0x00 0x00 0x00 0x00 0x80
21:50:54.819 -> Standard ID: 0x217       DLC: 8  Data: 0xF2 0x80 0x00 0x00 0x80 0xFF 0xFF 0xFF
21:50:54.819 -> Standard ID: 0x3A7       DLC: 8  Data: 0x10 0x00 0x00 0x03 0x66 0x00 0x36 0x05
21:50:54.819 -> Standard ID: 0x21F       DLC: 3  Data: 0x00 0x00 0x00
21:50:54.819 -> Standard ID: 0x036       DLC: 8  Data: 0x00 0x00 0x00 0x0F 0x01 0x00 0x00 0xA0
21:50:54.852 -> Standard ID: 0x317       DLC: 8  Data: 0xF3 0x9D 0x92 0xCC 0xD8 0x00 0x86 0x02
21:50:54.852 -> Standard ID: 0x51F       DLC: 8  Data: 0x01 0x00 0x00 0x00 0x00 0x00 0x00 0x00
21:50:54.852 -> Standard ID: 0x0B6       DLC: 8  Data: 0x00 0x00 0x00 0x00 0x00 0x00 0x00 0xD0
21:50:54.852 -> Standard ID: 0x220       DLC: 2  Data: 0x00 0x00
21:50:54.852 -> Standard ID: 0x1A8       DLC: 8  Data: 0x00 0x00 0x00 0x00 0x00 0x10 0x01 0x29
21:50:54.886 -> Standard ID: 0x0DF       DLC: 3  Data: 0x04 0x00 0x40
21:50:54.886 -> Standard ID: 0x525       DLC: 8  Data: 0x05 0x00 0x00 0x00 0x00 0x80 0x00 0x00
21:50:54.886 -> Standard ID: 0x512       DLC: 8  Data: 0x01 0x00 0x00 0x00 0x00 0x80 0x00 0x00
21:50:54.919 -> Standard ID: 0x167       DLC: 8  Data: 0x00 0x06 0xFF 0xFF 0x7F 0xFF 0x00 0x00
21:50:54.919 -> Standard ID: 0x14C       DLC: 5  Data: 0x00 0x00 0x00 0x00 0x80
21:50:54.919 -> Standard ID: 0x217       DLC: 8  Data: 0xF2 0x80 0x00 0x00 0x80 0xFF 0xFF 0xFF
21:50:54.919 -> Standard ID: 0x21F       DLC: 3  Data: 0x00 0x00 0x00
21:50:54.919 -> Standard ID: 0x168       DLC: 8  Data: 0x00 0x00 0x00 0x00 0x00 0x00 0x00 0x00
21:50:54.919 -> Standard ID: 0x036       DLC: 8  Data: 0x00 0x00 0x00 0x0F 0x01 0x00 0x00 0xA0
21:50:54.952 -> Standard ID: 0x261       DLC: 7  Data: 0x22 0x27 0x0F 0x00 0x50 0x44 0x97
21:50:54.952 -> Standard ID: 0x0B6       DLC: 8  Data: 0x00 0x00 0x00 0x00 0x00 0x00 0x00 0xD0
21:50:54.952 -> Standard ID: 0x361       DLC: 6  Data: 0x01 0x00 0x00 0x60 0x10 0x08
21:50:54.952 -> Standard ID: 0x3F6       DLC: 7  Data: 0x06 0xAF 0xE0 0xCE 0x00 0x84 0x01
21:50:54.952 -> Standard ID: 0x1A1       DLC: 8  Data: 0x7F 0xFF 0x00 0xFF 0xFF 0xFF 0xFF 0xFF
21:50:54.985 -> Standard ID: 0x0B6       DLC: 8  Data: 0x00 0x00 0x00 0x00 0x00 0x00 0x00 0xD0
21:50:54.985 -> Standard ID: 0x0F6       DLC: 8  Data: 0x80 0x3C 0x10 0xF2 0xCA 0x6C 0x6C 0x10
21:50:54.985 -> Standard ID: 0x0B6       DLC: 8  Data: 0x00 0x00 0x00 0x00 0x00 0x00 0x00 0xD0
21:50:54.985 -> Standard ID: 0x167       DLC: 8  Data: 0x00 0x06 0xFF 0xFF 0x7F 0xFF 0x00 0x00
21:50:54.985 -> Standard ID: 0x128       DLC: 8  Data: 0x00 0x00 0x00 0x00 0x00 0x80 0xB0 0x01
21:50:55.018 -> Standard ID: 0x14C       DLC: 5  Data: 0x00 0x00 0x00 0x00 0x80
21:50:55.018 -> Standard ID: 0x217       DLC: 8  Data: 0xF2 0x80 0x00 0x00 0x80 0xFF 0xFF 0xFF
21:50:55.018 -> Standard ID: 0x2A0       DLC: 1  Data: 0x00
21:50:55.018 -> Standard ID: 0x21F       DLC: 3  Data: 0x00 0x00 0x00
21:50:55.018 -> Standard ID: 0x036       DLC: 8  Data: 0x00 0x00 0x00 0x0F 0x01 0x00 0x00 0xA0
21:50:55.051 -> Standard ID: 0x1A8       DLC: 8  Data: 0x00 0x00 0x00 0x00 0x00 0x10 0x01 0x29
21:50:55.051 -> Standard ID: 0x3B6       DLC: 6  Data: 0x57 0x43 0x4B 0x46 0x56 0x43
21:50:55.051 -> Standard ID: 0x260       DLC: 8  Data: 0x03 0x03 0x92 0x40 0x00 0xD0 0x00 0x10
21:50:55.051 -> Standard ID: 0x0B6       DLC: 8  Data: 0x00 0x00 0x00 0x00 0x00 0x00 0x00 0xD0
21:50:55.051 -> Standard ID: 0x15B       DLC: 8  Data: 0x01 0x03 0x92 0x40 0x00 0xC0 0x00 0xF0
21:50:55.084 -> Standard ID: 0x0B6       DLC: 8  Data: 0x00 0x00 0x00 0x00 0x00 0x00 0x00 0xD0
21:50:55.084 -> Standard ID: 0x167       DLC: 8  Data: 0x00 0x06 0xFF 0xFF 0x7F 0xFF 0x00 0x00
21:50:55.084 -> Standard ID: 0x14C       DLC: 5  Data: 0x00 0x00 0x00 0x00 0x80
21:50:55.118 -> Standard ID: 0x217       DLC: 8  Data: 0xF2 0x80 0x00 0x00 0x80 0xFF 0xFF 0xFF
21:50:55.118 -> Standard ID: 0x21F       DLC: 3  Data: 0x00 0x00 0x00
21:50:55.118 -> Standard ID: 0x168       DLC: 8  Data: 0x00 0x00 0x00 0x00 0x00 0x00 0x00 0x00
21:50:55.118 -> Standard ID: 0x018       DLC: 5  Data: 0x80 0x00 0x00 0x00 0x00
21:50:55.118 -> Standard ID: 0x036       DLC: 8  Data: 0x00 0x00 0x00 0x0F 0x01 0x00 0x00 0xA0
21:50:55.151 -> Standard ID: 0x221       DLC: 7  Data: 0x00 0xFF 0xFF 0xFF 0xFF 0xFF 0xFF
21:50:55.151 -> Standard ID: 0x0B6       DLC: 8  Data: 0x00 0x00 0x00 0x00 0x00 0x00 0x00 0xD0
21:50:55.151 -> Standard ID: 0x227       DLC: 4  Data: 0x00 0x00 0x00 0x00
21:50:55.151 -> Standard ID: 0x1A1       DLC: 8  Data: 0x7F 0xFF 0x00 0xFF 0xFF 0xFF 0xFF 0xFF
21:50:55.184 -> Standard ID: 0x0B6       DLC: 8  Data: 0x00 0x00 0x00 0x00 0x00 0x00 0x00 0xD0
21:50:55.184 -> Standard ID: 0x167       DLC: 8  Data: 0x00 0x06 0xFF 0xFF 0x7F 0xFF 0x00 0x00
21:50:55.217 -> Standard ID: 0x128       DLC: 8  Data: 0x00 0x00 0x00 0x00 0x00 0x80 0xB0 0x01
21:50:55.217 -> Standard ID: 0x14C       DLC: 5  Data: 0x00 0x00 0x00 0x00 0x80
21:50:55.217 -> Standard ID: 0x217       DLC: 8  Data: 0xF2 0x80 0x00 0x00 0x80 0xFF 0xFF 0xFF
21:50:55.217 -> Standard ID: 0x21F       DLC: 3  Data: 0x00 0x00 0x00
21:50:55.217 -> Standard ID: 0x1A8       DLC: 8  Data: 0x00 0x00 0x00 0x00 0x00 0x10 0x01 0x29
21:50:55.217 -> Standard ID: 0x036       DLC: 8  Data: 0x00 0x00 0x00 0x0F 0x01 0x00 0x00 0xA0
21:50:55.250 -> Standard ID: 0x2B6       DLC: 8  Data: 0x33 0x34 0x30 0x32 0x38 0x39 0x33 0x37
21:50:55.250 -> Standard ID: 0x0B6       DLC: 8  Data: 0x00 0x00 0x00 0x00 0x00 0x00 0x00 0xD0
21:50:55.250 -> Standard ID: 0x161       DLC: 7  Data: 0x00 0x00 0x3C 0x00 0x00 0x00 0x64
21:50:55.283 -> Standard ID: 0x0B6       DLC: 8  Data: 0x00 0x00 0x00 0x00 0x00 0x00 0x00 0xD0
21:50:55.283 -> Standard ID: 0x167       DLC: 8  Data: 0x00 0x06 0xFF 0xFF 0x7F 0xFF 0x00 0x00
21:50:55.283 -> Standard ID: 0x14C       DLC: 5  Data: 0x00 0x00 0x00 0x00 0x80
21:50:55.316 -> Standard ID: 0x217       DLC: 8  Data: 0xF2 0x80 0x00 0x00 0x80 0xFF 0xFF 0xFF
21:50:55.316 -> Standard ID: 0x3A7       DLC: 8  Data: 0x10 0x00 0x00 0x03 0x66 0x00 0x36 0x05
21:50:55.316 -> Standard ID: 0x21F       DLC: 3  Data: 0x00 0x00 0x00
21:50:55.316 -> Standard ID: 0x168       DLC: 8  Data: 0x00 0x00 0x00 0x00 0x00 0x00 0x00 0x00
21:50:55.316 -> Standard ID: 0x018       DLC: 5  Data: 0x80 0x00 0x00 0x00 0x00
21:50:55.350 -> Standard ID: 0x036       DLC: 8  Data: 0x00 0x00 0x00 0x0F 0x01 0x00 0x00 0xA0
21:50:55.350 -> Standard ID: 0x0B6       DLC: 8  Data: 0x00 0x00 0x00 0x00 0x00 0x00 0x00 0xD0
21:50:55.350 -> Standard ID: 0x220       DLC: 2  Data: 0x00 0x00
21:50:55.350 -> Standard ID: 0x1A1       DLC: 8  Data: 0x7F 0xFF 0x00 0xFF 0xFF 0xFF 0xFF 0xFF
21:50:55.383 -> Standard ID: 0x0DF       DLC: 3  Data: 0x04 0x00 0x40
21:50:55.383 -> Standard ID: 0x0B6       DLC: 8  Data: 0x00 0x00 0x00 0x00 0x00 0x00 0x00 0xD0
21:50:55.383 -> Standard ID: 0x167       DLC: 8  Data: 0x00 0x06 0xFF 0xFF 0x7F 0xFF 0x00 0x00
21:50:55.416 -> Standard ID: 0x128       DLC: 8  Data: 0x00 0x00 0x00 0x00 0x00 0x80 0xB0 0x01
21:50:55.416 -> Standard ID: 0x14C       DLC: 5  Data: 0x00 0x00 0x00 0x00 0x80
21:50:55.416 -> Standard ID: 0x217       DLC: 8  Data: 0xF2 0x80 0x00 0x00 0x80 0xFF 0xFF 0xFF
21:50:55.416 -> Standard ID: 0x1A8       DLC: 8  Data: 0x00 0x00 0x00 0x00 0x00 0x10 0x01 0x29
21:50:55.416 -> Standard ID: 0x21F       DLC: 3  Data: 0x00 0x00 0x00
21:50:55.449 -> Standard ID: 0x036       DLC: 8  Data: 0x00 0x00 0x00 0x0F 0x01 0x00 0x00 0xA0
21:50:55.449 -> Standard ID: 0x0B6       DLC: 8  Data: 0x00 0x00 0x00 0x00 0x00 0x00 0x00 0xD0
21:50:55.449 -> Standard ID: 0x361       DLC: 6  Data: 0x01 0x00 0x00 0x60 0x10 0x08
21:50:55.482 -> Standard ID: 0x0F6       DLC: 8  Data: 0x80 0x3C 0x10 0xF2 0xCA 0x6C 0x6C 0x10
21:50:55.482 -> Standard ID: 0x0B6       DLC: 8  Data: 0x00 0x00 0x00 0x00 0x00 0x00 0x00 0xD0
21:50:55.482 -> Standard ID: 0x167       DLC: 8  Data: 0x00 0x06 0xFF 0xFF 0x7F 0xFF 0x00 0x00
21:50:55.515 -> Standard ID: 0x14C       DLC: 5  Data: 0x00 0x00 0x00 0x00 0x80
21:50:55.515 -> Standard ID: 0x217       DLC: 8  Data: 0xF2 0x80 0x00 0x00 0x80 0xFF 0xFF 0xFF
21:50:55.515 -> Standard ID: 0x2A0       DLC: 1  Data: 0x00
21:50:55.515 -> Standard ID: 0x168       DLC: 8  Data: 0x00 0x00 0x00 0x00 0x00 0x00 0x00 0x00
21:50:55.515 -> Standard ID: 0x018       DLC: 5  Data: 0x80 0x00 0x00 0x00 0x00
21:50:55.515 -> Standard ID: 0x21F       DLC: 3  Data: 0x00 0x00 0x00
21:50:55.548 -> Standard ID: 0x036       DLC: 8  Data: 0x00 0x00 0x00 0x0F 0x01 0x00 0x00 0xA0
21:50:55.548 -> Standard ID: 0x336       DLC: 3  Data: 0x56 0x46 0x33
21:50:55.548 -> Standard ID: 0x0B6       DLC: 8  Data: 0x00 0x00 0x00 0x00 0x00 0x00 0x00 0xD0
21:50:55.548 -> Standard ID: 0x260       DLC: 8  Data: 0x01 0x03 0x92 0x40 0x00 0xC0 0x00 0x10
21:50:55.548 -> Standard ID: 0x1A1       DLC: 8  Data: 0x7F 0xFF 0x00 0xFF 0xFF 0xFF 0xFF 0xFF
21:50:55.582 -> Standard ID: 0x15B       DLC: 8  Data: 0x01 0x03 0x92 0x40 0x00 0xC0 0x00 0xF0
21:50:55.582 -> Standard ID: 0x0B6       DLC: 8  Data: 0x00 0x00 0x00 0x00 0x00 0x00 0x00 0xD0
21:50:55.582 -> Standard ID: 0x167       DLC: 8  Data: 0x00 0x06 0xFF 0xFF 0x7F 0xFF 0x00 0x00
21:50:55.582 -> Standard ID: 0x128       DLC: 8  Data: 0x00 0x00 0x00 0x00 0x00 0x80 0xB0 0x01
21:50:55.615 -> Standard ID: 0x14C       DLC: 5  Data: 0x00 0x00 0x00 0x00 0x80
21:50:55.615 -> Standard ID: 0x217       DLC: 8  Data: 0xF2 0x80 0x00 0x00 0x80 0xFF 0xFF 0xFF
21:50:55.615 -> Standard ID: 0x1A8       DLC: 8  Data: 0x00 0x00 0x00 0x00 0x00 0x10 0x01 0x29
21:50:55.615 -> Standard ID: 0x21F       DLC: 3  Data: 0x00 0x00 0x00
21:50:55.615 -> Standard ID: 0x036       DLC: 8  Data: 0x00 0x00 0x00 0x0F 0x01 0x00 0x00 0xA0
21:50:55.648 -> Standard ID: 0x2A1       DLC: 7  Data: 0x12 0x04 0x43 0x00 0x63 0x0D 0xDA
21:50:55.648 -> Standard ID: 0x0B6       DLC: 8  Data: 0x00 0x00 0x00 0x00 0x00 0x00 0x00 0xD0
21:50:55.648 -> Standard ID: 0x227       DLC: 4  Data: 0x00 0x00 0x00 0x00
21:50:55.681 -> Standard ID: 0x128       DLC: 8  Data: 0x30 0xC0 0x00 0x00 0x00 0x81 0xB0 0x01
21:50:55.681 -> Standard ID: 0x168       DLC: 8  Data: 0x8E 0x00 0x00 0xA2 0x24 0x00 0x30 0x00
21:50:55.681 -> Standard ID: 0x0F6       DLC: 8  Data: 0x88 0x3C 0x10 0xF2 0xCA 0x6C 0x6C 0x18
21:50:55.714 -> Standard ID: 0x167       DLC: 8  Data: 0x00 0x06 0xFF 0xFF 0x7F 0xFF 0x00 0x00
21:50:55.714 -> Standard ID: 0x14C       DLC: 5  Data: 0x00 0x00 0x00 0x00 0x80
21:50:55.714 -> Standard ID: 0x217       DLC: 8  Data: 0xF2 0x80 0x00 0x00 0x80 0xFF 0xFF 0xFF
21:50:55.714 -> Standard ID: 0x0B6       DLC: 8  Data: 0x00 0x00 0x00 0x00 0x00 0x00 0x00 0xD0
21:50:55.714 -> Standard ID: 0x167       DLC: 8  Data: 0x02 0x06 0xFF 0xFF 0x7F 0xFF 0x00 0x00
21:50:55.747 -> Standard ID: 0x036       DLC: 8  Data: 0x00 0x00 0x00 0x0F 0x01 0x00 0x00 0xA0
21:50:55.747 -> Standard ID: 0x018       DLC: 5  Data: 0x80 0x00 0x02 0x00 0x00
21:50:55.747 -> Standard ID: 0x0B6       DLC: 8  Data: 0x00 0x00 0x00 0x00 0x00 0x00 0x00 0xD0
21:50:55.747 -> Standard ID: 0x161       DLC: 7  Data: 0x00 0x00 0x3C 0x0F 0x00 0x00 0x64
21:50:55.747 -> Standard ID: 0x018       DLC: 5  Data: 0x80 0x00 0x02 0x00 0x00
21:50:55.780 -> Standard ID: 0x1A1       DLC: 8  Data: 0x7F 0xFF 0x00 0xFF 0xFF 0xFF 0xFF 0xFF
21:50:55.780 -> Standard ID: 0x018       DLC: 5  Data: 0x80 0x00 0x00 0x00 0x00
21:50:55.780 -> Standard ID: 0x0B6       DLC: 8  Data: 0x00 0x00 0x00 0x00 0x00 0x00 0x00 0xD0
21:50:55.780 -> Standard ID: 0x128       DLC: 8  Data: 0x30 0xC0 0x00 0x00 0x00 0x81 0xB0 0x01
21:50:55.814 -> Standard ID: 0x14C       DLC: 5  Data: 0x00 0x00 0x00 0x00 0x80
21:50:55.814 -> Standard ID: 0x018       DLC: 5  Data: 0x00 0x00 0x02 0x00 0x00
21:50:55.814 -> Standard ID: 0x3A7       DLC: 8  Data: 0x10 0x00 0x00 0x03 0x66 0x00 0x36 0x05
21:50:55.814 -> Standard ID: 0x1A8       DLC: 8  Data: 0x00 0x00 0x00 0x00 0x00 0x10 0x01 0x29
21:50:55.814 -> Standard ID: 0x167       DLC: 8  Data: 0x02 0x06 0xFF 0xFF 0x7F 0xFF 0x00 0x00
21:50:55.847 -> Standard ID: 0x018       DLC: 5  Data: 0x00 0x00 0x02 0x00 0x00
21:50:55.847 -> Standard ID: 0x036       DLC: 8  Data: 0x00 0x00 0x00 0x0F 0x01 0x00 0x00 0xA0
21:50:55.847 -> Standard ID: 0x018       DLC: 5  Data: 0x00 0x00 0x02 0x00 0x00
21:50:55.847 -> Standard ID: 0x0B6       DLC: 8  Data: 0x00 0x00 0x00 0x00 0x00 0x00 0x00 0xD0
21:50:55.847 -> Standard ID: 0x220       DLC: 2  Data: 0x00 0x00
21:50:55.847 -> Standard ID: 0x217       DLC: 8  Data: 0xF2 0x40 0x00 0x00 0x80 0xFF 0xFF 0xFF
21:50:55.880 -> Standard ID: 0x21F       DLC: 3  Data: 0x00 0x00 0x00
21:50:55.880 -> Standard ID: 0x0DF       DLC: 3  Data: 0x04 0x00 0x40
21:50:55.880 -> Standard ID: 0x525       DLC: 8  Data: 0x05 0x00 0x00 0x00 0x00 0x80 0x00 0x00
21:50:55.913 -> Standard ID: 0x512       DLC: 8  Data: 0x01 0x00 0x00 0x00 0x00 0x80 0x00 0x00
21:50:55.913 -> Standard ID: 0x14C       DLC: 5  Data: 0x00 0x00 0x00 0x00 0x80
21:50:55.913 -> Standard ID: 0x0B6       DLC: 8  Data: 0x00 0x00 0x00 0x00 0x00 0x00 0x00 0xD0
21:50:55.913 -> Standard ID: 0x018       DLC: 5  Data: 0x80 0x00 0x02 0x00 0x00
21:50:55.913 -> Standard ID: 0x168       DLC: 8  Data: 0x8E 0x00 0x00 0xA2 0x24 0x00 0x30 0x00
21:50:55.913 -> Standard ID: 0x167       DLC: 8  Data: 0x02 0x06 0xFF 0xFF 0x7F 0xFF 0x00 0x00
21:50:55.946 -> Standard ID: 0x036       DLC: 8  Data: 0x00 0x00 0x00 0x0F 0x01 0x00 0x00 0xA0
21:50:55.946 -> Standard ID: 0x018       DLC: 5  Data: 0x80 0x00 0x02 0x00 0x00
21:50:55.946 -> Standard ID: 0x0E6       DLC: 6  Data: 0x91 0x00 0x00 0x00 0x00 0x65
21:50:55.946 -> Standard ID: 0x0B6       DLC: 8  Data: 0x00 0x00 0x00 0x00 0x00 0x00 0x00 0xD0
21:50:55.946 -> Standard ID: 0x361       DLC: 6  Data: 0x01 0x00 0x00 0x60 0x10 0x08
21:50:55.979 -> Standard ID: 0x217       DLC: 8  Data: 0xF2 0x40 0x00 0x00 0x80 0xFF 0xFF 0xFF
21:50:55.979 -> Standard ID: 0x1A1       DLC: 8  Data: 0x7F 0xFF 0x00 0xFF 0xFF 0xFF 0xFF 0xFF
21:50:55.979 -> Standard ID: 0x018       DLC: 5  Data: 0x80 0x00 0x02 0x00 0x00
21:50:55.979 -> Standard ID: 0x0F6       DLC: 8  Data: 0x88 0x41 0x10 0xF2 0xCA 0x6C 0x6C 0x18
21:50:55.979 -> Standard ID: 0x0B6       DLC: 8  Data: 0x00 0x00 0x00 0x00 0x00 0x00 0x00 0xD0
21:50:56.012 -> Standard ID: 0x128       DLC: 8  Data: 0x30 0xC0 0x00 0x00 0x00 0x81 0xB0 0x01
21:50:56.012 -> Standard ID: 0x14C       DLC: 5  Data: 0x00 0x00 0x00 0x00 0x80
21:50:56.012 -> Standard ID: 0x2A0       DLC: 1  Data: 0x00
21:50:56.012 -> Standard ID: 0x1A8       DLC: 8  Data: 0x00 0x00 0x00 0x00 0x00 0x10 0x01 0x29
21:50:56.012 -> Standard ID: 0x167       DLC: 8  Data: 0x02 0x06 0xFF 0xFF 0x7F 0xFF 0x00 0x00
21:50:56.012 -> Standard ID: 0x21F       DLC: 3  Data: 0x00 0x00 0x00
21:50:56.045 -> Standard ID: 0x036       DLC: 8  Data: 0x00 0x00 0x00 0x0F 0x01 0x00 0x00 0xA0
21:50:56.045 -> Standard ID: 0x3B6       DLC: 6  Data: 0x57 0x43 0x4B 0x46 0x56 0x43
21:50:56.045 -> Standard ID: 0x0B6       DLC: 8  Data: 0x00 0x00 0x00 0x00 0x00 0x00 0x00 0xD0
21:50:56.045 -> Standard ID: 0x260       DLC: 8  Data: 0x02 0x03 0x92 0x40 0x00 0xD0 0x00 0x10
21:50:56.045 -> Standard ID: 0x217       DLC: 8  Data: 0xF2 0x40 0x00 0x00 0x80 0xFF 0xFF 0xFF
21:50:56.079 -> Standard ID: 0x0E6       DLC: 6  Data: 0x91 0x00 0x00 0x00 0x00 0x65
21:50:56.079 -> Standard ID: 0x15B       DLC: 8  Data: 0x01 0x03 0x92 0x40 0x00 0xC0 0x00 0xF0
21:50:56.079 -> Standard ID: 0x0B6       DLC: 8  Data: 0x00 0x00 0x00 0x00 0x00 0x00 0x00 0xD0
21:50:56.079 -> Standard ID: 0x14C       DLC: 5  Data: 0x00 0x00 0x00 0x00 0x80
21:50:56.112 -> Standard ID: 0x168       DLC: 8  Data: 0x8E 0x00 0x00 0xA2 0x24 0x00 0x30 0x00
21:50:56.112 -> Standard ID: 0x167       DLC: 8  Data: 0x02 0x06 0xFF 0xFF 0x7F 0xFF 0x00 0x00
21:50:56.145 -> Standard ID: 0x21F       DLC: 3  Data: 0x00 0x00 0x00
21:50:56.145 -> Standard ID: 0x018       DLC: 5  Data: 0x80 0x00 0x02 0x00 0x00
21:50:56.145 -> Standard ID: 0x221       DLC: 7  Data: 0x00 0xFF 0xFF 0xFF 0xFF 0xFF 0xFF
21:50:56.145 -> Standard ID: 0x0E6       DLC: 6  Data: 0x91 0x00 0x00 0x00 0x00 0x65
21:50:56.145 -> Standard ID: 0x0B6       DLC: 8  Data: 0x00 0x00 0x00 0x00 0x00 0x00 0x00 0xD0
21:50:56.145 -> Standard ID: 0x227       DLC: 4  Data: 0x00 0x00 0x00 0x00
21:50:56.178 -> Standard ID: 0x217       DLC: 8  Data: 0xF2 0x40 0x00 0x00 0x80 0xFF 0xFF 0xFF
21:50:56.178 -> Standard ID: 0x1A1       DLC: 8  Data: 0x7F 0xFF 0x00 0xFF 0xFF 0xFF 0xFF 0xFF
21:50:56.178 -> Standard ID: 0x036       DLC: 8  Data: 0x00 0x00 0x00 0x0F 0x01 0x00 0x00 0xA0
21:50:56.178 -> Standard ID: 0x0B6       DLC: 8  Data: 0x00 0x00 0x00 0x00 0x00 0x00 0x00 0xD0
21:50:56.178 -> Standard ID: 0x128       DLC: 8  Data: 0x30 0xC0 0x00 0x00 0x00 0x81 0xB0 0x01
21:50:56.211 -> Standard ID: 0x14C       DLC: 5  Data: 0x00 0x00 0x00 0x00 0x80
21:50:56.211 -> Standard ID: 0x1A8       DLC: 8  Data: 0x00 0x00 0x00 0x00 0x00 0x10 0x01 0x29
21:50:56.211 -> Standard ID: 0x167       DLC: 8  Data: 0x02 0x06 0xFF 0xFF 0x7F 0xFF 0x00 0x00
21:50:56.244 -> Standard ID: 0x21F       DLC: 3  Data: 0x00 0x00 0x00
21:50:56.244 -> Standard ID: 0x036       DLC: 8  Data: 0x00 0x00 0x00 0x0F 0x01 0x00 0x00 0xA0
21:50:56.244 -> Standard ID: 0x2B6       DLC: 8  Data: 0x33 0x34 0x30 0x32 0x38 0x39 0x33 0x37
21:50:56.244 -> Standard ID: 0x0B6       DLC: 8  Data: 0x00 0x00 0x00 0x00 0x00 0x00 0x00 0xD0
21:50:56.244 -> Standard ID: 0x161       DLC: 7  Data: 0x00 0x00 0x3C 0x0F 0x00 0x00 0x64
21:50:56.277 -> Standard ID: 0x217       DLC: 8  Data: 0xF2 0x40 0x00 0x00 0x80 0xFF 0xFF 0xFF
21:50:56.277 -> Standard ID: 0x0E6       DLC: 6  Data: 0x91 0x00 0x00 0x00 0x00 0x65
21:50:56.277 -> Standard ID: 0x0B6       DLC: 8  Data: 0x00 0x00 0x00 0x00 0x00 0x00 0x00 0xD0
21:50:56.311 -> Standard ID: 0x14C       DLC: 5  Data: 0x00 0x00 0x00 0x00 0x80
21:50:56.311 -> Standard ID: 0x3A7       DLC: 8  Data: 0x10 0x00 0x00 0x03 0x66 0x00 0x36 0x05
21:50:56.311 -> Standard ID: 0x168       DLC: 8  Data: 0x8E 0x00 0x00 0xA2 0x24 0x00 0x30 0x00
21:50:56.311 -> Standard ID: 0x167       DLC: 8  Data: 0x02 0x06 0xFF 0xFF 0x7F 0xFF 0x00 0x00
21:50:56.344 -> Standard ID: 0x21F       DLC: 3  Data: 0x00 0x00 0x00
21:50:56.344 -> Standard ID: 0x018       DLC: 5  Data: 0x80 0x00 0x02 0x00 0x00
21:50:56.344 -> Standard ID: 0x036       DLC: 8  Data: 0x00 0x00 0x00 0x0F 0x01 0x00 0x00 0xA0
21:50:56.344 -> Standard ID: 0x0E6       DLC: 6  Data: 0x91 0x00 0x00 0x00 0x00 0x65
21:50:56.344 -> Standard ID: 0x220       DLC: 2  Data: 0x00 0x00
21:50:56.344 -> Standard ID: 0x0B6       DLC: 8  Data: 0x00 0x00 0x00 0x00 0x00 0x00 0x00 0xD0
21:50:56.377 -> Standard ID: 0x217       DLC: 8  Data: 0xF2 0x40 0x00 0x00 0x80 0xFF 0xFF 0xFF
21:50:56.377 -> Standard ID: 0x1A1       DLC: 8  Data: 0x7F 0xFF 0x00 0xFF 0xFF 0xFF 0xFF 0xFF
21:50:56.377 -> Standard ID: 0x0DF       DLC: 3  Data: 0x04 0x00 0x40
21:50:56.377 -> Standard ID: 0x0B6       DLC: 8  Data: 0x00 0x00 0x00 0x00 0x00 0x00 0x00 0xD0
21:50:56.410 -> Standard ID: 0x128       DLC: 8  Data: 0x30 0xC0 0x00 0x00 0x00 0x81 0xB0 0x01
21:50:56.410 -> Standard ID: 0x14C       DLC: 5  Data: 0x00 0x00 0x00 0x00 0x80
21:50:56.410 -> Standard ID: 0x1A8       DLC: 8  Data: 0x00 0x00 0x00 0x00 0x00 0x10 0x01 0x29
21:50:56.410 -> Standard ID: 0x167       DLC: 8  Data: 0x02 0x06 0xFF 0xFF 0x7F 0xFF 0x00 0x00
21:50:56.443 -> Standard ID: 0x21F       DLC: 3  Data: 0x00 0x00 0x00
21:50:56.443 -> Standard ID: 0x036       DLC: 8  Data: 0x00 0x00 0x00 0x0F 0x01 0x00 0x00 0xA0
21:50:56.443 -> Standard ID: 0x0E6       DLC: 6  Data: 0x91 0x00 0x00 0x00 0x00 0x65
21:50:56.443 -> Standard ID: 0x0B6       DLC: 8  Data: 0x00 0x00 0x00 0x00 0x00 0x00 0x00 0xD0
21:50:56.443 -> Standard ID: 0x361       DLC: 6  Data: 0x01 0x00 0x00 0x60 0x10 0x08
21:50:56.443 -> Standard ID: 0x217       DLC: 8  Data: 0xF2 0x40 0x00 0x00 0x80 0xFF 0xFF 0xFF
21:50:56.476 -> Standard ID: 0x0F6       DLC: 8  Data: 0x88 0x41 0x10 0xF2 0xCA 0x6C 0x6C 0x18
21:50:56.476 -> Standard ID: 0x0B6       DLC: 8  Data: 0x00 0x00 0x00 0x00 0x00 0x00 0x00 0xD0
21:50:56.509 -> Standard ID: 0x14C       DLC: 5  Data: 0x00 0x00 0x00 0x00 0x80
21:50:56.509 -> Standard ID: 0x2A0       DLC: 1  Data: 0x00
21:50:56.509 -> Standard ID: 0x168       DLC: 8  Data: 0x8E 0x00 0x00 0xA2 0x24 0x00 0x30 0x00
21:50:56.509 -> Standard ID: 0x167       DLC: 8  Data: 0x02 0x06 0xFF 0xFF 0x7F 0xFF 0x00 0x00
21:50:56.542 -> Standard ID: 0x036       DLC: 8  Data: 0x00 0x00 0x00 0x0F 0x01 0x00 0x00 0xA0
21:50:56.542 -> Standard ID: 0x018       DLC: 5  Data: 0x80 0x00 0x02 0x00 0x00
21:50:56.542 -> Standard ID: 0x336       DLC: 3  Data: 0x56 0x46 0x33
21:50:56.542 -> Standard ID: 0x0B6       DLC: 8  Data: 0x00 0x00 0x00 0x00 0x00 0x00 0x00 0xD0
21:50:56.542 -> Standard ID: 0x260       DLC: 8  Data: 0x03 0x03 0x92 0x40 0x00 0xD0 0x00 0x10
21:50:56.576 -> Standard ID: 0x217       DLC: 8  Data: 0xF2 0x40 0x00 0x00 0x80 0xFF 0xFF 0xFF
21:50:56.576 -> Standard ID: 0x1A1       DLC: 8  Data: 0x7F 0xFF 0x00 0xFF 0xFF 0xFF 0xFF 0xFF
21:50:56.576 -> Standard ID: 0x15B       DLC: 8  Data: 0x01 0x03 0x92 0x40 0x00 0xC0 0x00 0xF0
21:50:56.576 -> Standard ID: 0x21F       DLC: 3  Data: 0x00 0x00 0x00
21:50:56.576 -> Standard ID: 0x0B6       DLC: 8  Data: 0x00 0x00 0x00 0x00 0x00 0x00 0x00 0xD0
21:50:56.609 -> Standard ID: 0x128       DLC: 8  Data: 0x30 0xC0 0x00 0x00 0x00 0x81 0xB0 0x01
21:50:56.609 -> Standard ID: 0x14C       DLC: 5  Data: 0x00 0x00 0x00 0x00 0x80
21:50:56.609 -> Standard ID: 0x1A8       DLC: 8  Data: 0x00 0x00 0x00 0x00 0x00 0x10 0x01 0x29
21:50:56.609 -> Standard ID: 0x167       DLC: 8  Data: 0x02 0x06 0xFF 0xFF 0x7F 0xFF 0x00 0x00
21:50:56.642 -> Standard ID: 0x036       DLC: 8  Data: 0x00 0x00 0x00 0x0F 0x01 0x00 0x00 0xA0
21:50:56.642 -> Standard ID: 0x21F       DLC: 3  Data: 0x00 0x00 0x00
21:50:56.642 -> Standard ID: 0x0E6       DLC: 6  Data: 0x91 0x00 0x00 0x00 0x00 0x65
21:50:56.642 -> Standard ID: 0x0B6       DLC: 8  Data: 0x00 0x00 0x00 0x00 0x00 0x00 0x00 0xD0
21:50:56.642 -> Standard ID: 0x227       DLC: 4  Data: 0x00 0x00 0x00 0x00
21:50:56.675 -> Standard ID: 0x217       DLC: 8  Data: 0xF2 0x40 0x00 0x00 0x80 0xFF 0xFF 0xFF
21:50:56.675 -> Standard ID: 0x2A1       DLC: 7  Data: 0x12 0x04 0x43 0x00 0x63 0x0D 0xDA
21:50:56.675 -> Standard ID: 0x0B6       DLC: 8  Data: 0x00 0x00 0x00 0x00 0x00 0x00 0x00 0xD0
21:50:56.708 -> Standard ID: 0x14C       DLC: 5  Data: 0x00 0x00 0x00 0x00 0x80
21:50:56.708 -> Standard ID: 0x168       DLC: 8  Data: 0x8E 0x00 0x00 0xA2 0x24 0x00 0x30 0x00
21:50:56.741 -> Standard ID: 0x167       DLC: 8  Data: 0x02 0x06 0xFF 0xFF 0x7F 0xFF 0x00 0x00
21:50:56.741 -> Standard ID: 0x036       DLC: 8  Data: 0x00 0x00 0x00 0x0F 0x01 0x00 0x00 0xA0
21:50:56.741 -> Standard ID: 0x018       DLC: 5  Data: 0x80 0x00 0x02 0x00 0x00
21:50:56.741 -> Standard ID: 0x0E6       DLC: 6  Data: 0x91 0x00 0x00 0x00 0x00 0x65
21:50:56.741 -> Standard ID: 0x0B6       DLC: 8  Data: 0x00 0x00 0x00 0x00 0x00 0x00 0x00 0xD0
21:50:56.741 -> Standard ID: 0x161       DLC: 7  Data: 0x00 0x00 0x39 0x0F 0x00 0x00 0x64
21:50:56.774 -> Standard ID: 0x217       DLC: 8  Data: 0xF2 0x40 0x00 0x00 0x80 0xFF 0xFF 0xFF
21:50:56.774 -> Standard ID: 0x1A1       DLC: 8  Data: 0x7F 0xFF 0x00 0xFF 0xFF 0xFF 0xFF 0xFF
21:50:56.774 -> Standard ID: 0x21F       DLC: 3  Data: 0x00 0x00 0x00
21:50:56.774 -> Standard ID: 0x0B6       DLC: 8  Data: 0x00 0x00 0x00 0x00 0x00 0x00 0x00 0xD0
21:50:56.807 -> Standard ID: 0x128       DLC: 8  Data: 0x30 0xC0 0x00 0x00 0x00 0x81 0xB0 0x01
21:50:56.807 -> Standard ID: 0x14C       DLC: 5  Data: 0x00 0x00 0x00 0x00 0x80
21:50:56.807 -> Standard ID: 0x3A7       DLC: 8  Data: 0x10 0x00 0x00 0x03 0x66 0x00 0x36 0x05
21:50:56.807 -> Standard ID: 0x1A8       DLC: 8  Data: 0x00 0x00 0x00 0x00 0x00 0x10 0x01 0x29
21:50:56.807 -> Standard ID: 0x167       DLC: 8  Data: 0x02 0x06 0xFF 0xFF 0x7F 0xFF 0x00 0x00
21:50:56.841 -> Standard ID: 0x036       DLC: 8  Data: 0x00 0x00 0x00 0x0F 0x01 0x00 0x00 0xA0
21:50:56.841 -> Standard ID: 0x21F       DLC: 3  Data: 0x00 0x00 0x00
21:50:56.841 -> Standard ID: 0x51F       DLC: 8  Data: 0x01 0x00 0x00 0x00 0x00 0x00 0x00 0x00
21:50:56.841 -> Standard ID: 0x0B6       DLC: 8  Data: 0x00 0x00 0x00 0x00 0x00 0x00 0x00 0xD0
21:50:56.841 -> Standard ID: 0x220       DLC: 2  Data: 0x00 0x00
21:50:56.874 -> Standard ID: 0x217       DLC: 8  Data: 0xF2 0x40 0x00 0x00 0x80 0xFF 0xFF 0xFF
21:50:56.874 -> Standard ID: 0x317       DLC: 8  Data: 0xF3 0x9D 0x92 0xCC 0xD8 0x00 0x86 0x02
21:50:56.874 -> Standard ID: 0x0DF       DLC: 3  Data: 0x04 0x00 0x40
21:50:56.874 -> Standard ID: 0x525       DLC: 8  Data: 0x05 0x00 0x00 0x00 0x00 0x80 0x00 0x00
21:50:56.907 -> Standard ID: 0x512       DLC: 8  Data: 0x01 0x00 0x00 0x00 0x00 0x80 0x00 0x00
21:50:56.907 -> Standard ID: 0x14C       DLC: 5  Data: 0x00 0x00 0x00 0x00 0x80
21:50:56.907 -> Standard ID: 0x0B6       DLC: 8  Data: 0x00 0x00 0x00 0x00 0x00 0x00 0x00 0xD0
21:50:56.907 -> Standard ID: 0x168       DLC: 8  Data: 0x8E 0x00 0x00 0xA2 0x24 0x00 0x30 0x00
21:50:56.907 -> Standard ID: 0x167       DLC: 8  Data: 0x02 0x06 0xFF 0xFF 0x7F 0xFF 0x00 0x00
21:50:56.940 -> Standard ID: 0x036       DLC: 8  Data: 0x00 0x00 0x00 0x0F 0x01 0x00 0x00 0xA0
21:50:56.940 -> Standard ID: 0x018       DLC: 5  Data: 0x80 0x00 0x02 0x00 0x00
21:50:56.940 -> Standard ID: 0x261       DLC: 7  Data: 0x22 0x27 0x0F 0x00 0x50 0x44 0x97
21:50:56.940 -> Standard ID: 0x0B6       DLC: 8  Data: 0x00 0x00 0x00 0x00 0x00 0x00 0x00 0xD0
21:50:56.940 -> Standard ID: 0x361       DLC: 6  Data: 0x01 0x00 0x00 0x60 0x10 0x08
21:50:56.973 -> Standard ID: 0x3F6       DLC: 7  Data: 0x06 0xB0 0x00 0xCE 0x00 0x84 0x01
21:50:56.973 -> Standard ID: 0x1A1       DLC: 8  Data: 0x7F 0xFF 0x00 0xFF 0xFF 0xFF 0xFF 0xFF
21:50:56.973 -> Standard ID: 0x21F       DLC: 3  Data: 0x00 0x00 0x00
21:50:56.973 -> Standard ID: 0x0F6       DLC: 8  Data: 0x88 0x41 0x10 0xF2 0xCA 0x6C 0x6C 0x18
21:50:56.973 -> Standard ID: 0x0B6       DLC: 8  Data: 0x00 0x00 0x00 0x00 0x00 0x00 0x00 0xD0
21:50:57.006 -> Standard ID: 0x128       DLC: 8  Data: 0x30 0xC0 0x00 0x00 0x00 0x81 0xB0 0x01
21:50:57.006 -> Standard ID: 0x14C       DLC: 5  Data: 0x00 0x00 0x00 0x00 0x80
21:50:57.006 -> Standard ID: 0x2A0       DLC: 1  Data: 0x00
21:50:57.006 -> Standard ID: 0x1A8       DLC: 8  Data: 0x00 0x00 0x00 0x00 0x00 0x10 0x01 0x29
21:50:57.039 -> Standard ID: 0x167       DLC: 8  Data: 0x02 0x06 0xFF 0xFF 0x7F 0xFF 0x00 0x00
21:50:57.039 -> Standard ID: 0x036       DLC: 8  Data: 0x00 0x00 0x00 0x0F 0x01 0x00 0x00 0xA0
21:50:57.039 -> Standard ID: 0x21F       DLC: 3  Data: 0x00 0x00 0x00
21:50:57.039 -> Standard ID: 0x0E6       DLC: 6  Data: 0x91 0x00 0x00 0x00 0x00 0x65
21:50:57.039 -> Standard ID: 0x0B6       DLC: 8  Data: 0x00 0x00 0x00 0x00 0x00 0x00 0x00 0xD0
21:50:57.039 -> Standard ID: 0x260       DLC: 8  Data: 0x01 0x03 0x92 0x40 0x00 0xC0 0x00 0x10
21:50:57.073 -> Standard ID: 0x217       DLC: 8  Data: 0xF2 0x40 0x00 0x00 0x80 0xFF 0xFF 0xFF
21:50:57.073 -> Standard ID: 0x3B6       DLC: 6  Data: 0x57 0x43 0x4B 0x46 0x56 0x43
21:50:57.073 -> Standard ID: 0x15B       DLC: 8  Data: 0x01 0x03 0x92 0x40 0x00 0xC0 0x00 0xF0
21:50:57.073 -> Standard ID: 0x0B6       DLC: 8  Data: 0x00 0x00 0x00 0x00 0x00 0x00 0x00 0xD0
21:50:57.106 -> Standard ID: 0x14C       DLC: 5  Data: 0x00 0x00 0x00 0x00 0x80
21:50:57.106 -> Standard ID: 0x168       DLC: 8  Data: 0x8E 0x00 0x00 0xA2 0x24 0x00 0x30 0x00
21:50:57.106 -> Standard ID: 0x167       DLC: 8  Data: 0x02 0x06 0xFF 0xFF 0x7F 0xFF 0x00 0x00
21:50:57.139 -> Standard ID: 0x036       DLC: 8  Data: 0x00 0x00 0x00 0x0F 0x01 0x00 0x00 0xA0
21:50:57.139 -> Standard ID: 0x018       DLC: 5  Data: 0x80 0x00 0x02 0x00 0x00
21:50:57.139 -> Standard ID: 0x221       DLC: 7  Data: 0x00 0xFF 0xFF 0xFF 0xFF 0xFF 0xFF
21:50:57.139 -> Standard ID: 0x0B6       DLC: 8  Data: 0x00 0x00 0x00 0x00 0x00 0x00 0x00 0xD0
21:50:57.172 -> Standard ID: 0x227       DLC: 4  Data: 0x00 0x00 0x00 0x00
21:50:57.172 -> Standard ID: 0x217       DLC: 8  Data: 0xF2 0x40 0x00 0x00 0x80 0xFF 0xFF 0xFF
21:50:57.172 -> Standard ID: 0x1A1       DLC: 8  Data: 0x7F 0xFF 0x00 0xFF 0xFF 0xFF 0xFF 0xFF
21:50:57.172 -> Standard ID: 0x21F       DLC: 3  Data: 0x00 0x00 0x00
21:50:57.172 -> Standard ID: 0x0B6       DLC: 8  Data: 0x00 0x00 0x00 0x00 0x00 0x00 0x00 0xD0
21:50:57.205 -> Standard ID: 0x128       DLC: 8  Data: 0x30 0xC0 0x00 0x00 0x00 0x81 0xB0 0x01
21:50:57.205 -> Standard ID: 0x14C       DLC: 5  Data: 0x00 0x00 0x00 0x00 0x80
21:50:57.205 -> Standard ID: 0x1A8       DLC: 8  Data: 0x00 0x00 0x00 0x00 0x00 0x10 0x01 0x29
21:50:57.238 -> Standard ID: 0x167       DLC: 8  Data: 0x02 0x06 0xFF 0xFF 0x7F 0xFF 0x00 0x00
21:50:57.238 -> Standard ID: 0x036       DLC: 8  Data: 0x00 0x00 0x00 0x0F 0x01 0x00 0x00 0xA0
21:50:57.238 -> Standard ID: 0x21F       DLC: 3  Data: 0x00 0x00 0x00
21:50:57.238 -> Standard ID: 0x0E6       DLC: 6  Data: 0x91 0x00 0x00 0x00 0x00 0x65
21:50:57.238 -> Standard ID: 0x0B6       DLC: 8  Data: 0x00 0x00 0x00 0x00 0x00 0x00 0x00 0xD0
21:50:57.238 -> Standard ID: 0x161       DLC: 7  Data: 0x00 0x00 0x39 0x0F 0x00 0x00 0x64
21:50:57.272 -> Standard ID: 0x217       DLC: 8  Data: 0xF2 0x40 0x00 0x00 0x80 0xFF 0xFF 0xFF
21:50:57.272 -> Standard ID: 0x2B6       DLC: 8  Data: 0x33 0x34 0x30 0x32 0x38 0x39 0x33 0x37
21:50:57.272 -> Standard ID: 0x0B6       DLC: 8  Data: 0x00 0x00 0x00 0x00 0x00 0x00 0x00 0xD0
21:50:57.305 -> Standard ID: 0x14C       DLC: 5  Data: 0x00 0x00 0x00 0x00 0x80
21:50:57.305 -> Standard ID: 0x3A7       DLC: 8  Data: 0x10 0x00 0x00 0x03 0x66 0x00 0x36 0x05
21:50:57.305 -> Standard ID: 0x168       DLC: 8  Data: 0x8E 0x00 0x00 0xA2 0x24 0x00 0x30 0x00
21:50:57.338 -> Standard ID: 0x167       DLC: 8  Data: 0x02 0x06 0xFF 0xFF 0x7F 0xFF 0x00 0x00
21:50:57.338 -> Standard ID: 0x036       DLC: 8  Data: 0x00 0x00 0x00 0x0F 0x01 0x00 0x00 0xA0
21:50:57.338 -> Standard ID: 0x018       DLC: 5  Data: 0x80 0x00 0x02 0x00 0x00
21:50:57.338 -> Standard ID: 0x0E6       DLC: 6  Data: 0x91 0x00 0x00 0x00 0x00 0x65
21:50:57.338 -> Standard ID: 0x0B6       DLC: 8  Data: 0x00 0x00 0x00 0x00 0x00 0x00 0x00 0xD0
21:50:57.371 -> Standard ID: 0x220       DLC: 2  Data: 0x00 0x00
21:50:57.371 -> Standard ID: 0x217       DLC: 8  Data: 0xF2 0x40 0x00 0x00 0x80 0xFF 0xFF 0xFF
21:50:57.371 -> Standard ID: 0x1A1       DLC: 8  Data: 0x7F 0xFF 0x00 0xFF 0xFF 0xFF 0xFF 0xFF
21:50:57.371 -> Standard ID: 0x21F       DLC: 3  Data: 0x00 0x00 0x00
21:50:57.371 -> Standard ID: 0x0DF       DLC: 3  Data: 0x04 0x00 0x40
21:50:57.404 -> Standard ID: 0x0B6       DLC: 8  Data: 0x00 0x00 0x00 0x00 0x00 0x00 0x00 0xD0
21:50:57.404 -> Standard ID: 0x128       DLC: 8  Data: 0x30 0xC0 0x00 0x00 0x00 0x81 0xB0 0x01
21:50:57.404 -> Standard ID: 0x14C       DLC: 5  Data: 0x00 0x00 0x00 0x00 0x80
21:50:57.404 -> Standard ID: 0x1A8       DLC: 8  Data: 0x00 0x00 0x00 0x00 0x00 0x10 0x01 0x29
21:50:57.437 -> Standard ID: 0x167       DLC: 8  Data: 0x02 0x06 0xFF 0xFF 0x7F 0xFF 0x00 0x00
21:50:57.437 -> Standard ID: 0x036       DLC: 8  Data: 0x00 0x00 0x00 0x0F 0x01 0x00 0x00 0xA0
21:50:57.437 -> Standard ID: 0x21F       DLC: 3  Data: 0x00 0x00 0x00
21:50:57.437 -> Standard ID: 0x0E6       DLC: 6  Data: 0x91 0x00 0x00 0x00 0x00 0x65
21:50:57.437 -> Standard ID: 0x0B6       DLC: 8  Data: 0x00 0x00 0x00 0x00 0x00 0x00 0x00 0xD0
21:50:57.470 -> Standard ID: 0x361       DLC: 6  Data: 0x01 0x00 0x00 0x60 0x10 0x08
21:50:57.470 -> Standard ID: 0x217       DLC: 8  Data: 0xF2 0x40 0x00 0x00 0x80 0xFF 0xFF 0xFF
21:50:57.470 -> Standard ID: 0x0F6       DLC: 8  Data: 0x88 0x41 0x10 0xF2 0xCA 0x6C 0x6C 0x18
21:50:57.504 -> Standard ID: 0x0B6       DLC: 8  Data: 0x00 0x00 0x00 0x00 0x00 0x00 0x00 0xD0
21:50:57.504 -> Standard ID: 0x14C       DLC: 5  Data: 0x00 0x00 0x00 0x00 0x80
21:50:57.504 -> Standard ID: 0x2A0       DLC: 1  Data: 0x00
21:50:57.504 -> Standard ID: 0x168       DLC: 8  Data: 0x8E 0x00 0x00 0xA2 0x24 0x00 0x30 0x00
21:50:57.537 -> Standard ID: 0x167       DLC: 8  Data: 0x02 0x06 0xFF 0xFF 0x7F 0xFF 0x00 0x00
21:50:57.537 -> Standard ID: 0x036       DLC: 8  Data: 0x00 0x00 0x00 0x0F 0x01 0x00 0x00 0xA0
21:50:57.537 -> Standard ID: 0x018       DLC: 5  Data: 0x80 0x00 0x02 0x00 0x00
21:50:57.537 -> Standard ID: 0x336       DLC: 3  Data: 0x56 0x46 0x33
21:50:57.537 -> Standard ID: 0x0B6       DLC: 8  Data: 0x00 0x00 0x00 0x00 0x00 0x00 0x00 0xD0
21:50:57.537 -> Standard ID: 0x260       DLC: 8  Data: 0x02 0x03 0x92 0x40 0x00 0xD0 0x00 0x10
21:50:57.570 -> Standard ID: 0x217       DLC: 8  Data: 0xF2 0x40 0x00 0x00 0x80 0xFF 0xFF 0xFF
21:50:57.570 -> Standard ID: 0x1A1       DLC: 8  Data: 0x7F 0xFF 0x00 0xFF 0xFF 0xFF 0xFF 0xFF
21:50:57.570 -> Standard ID: 0x15B       DLC: 8  Data: 0x01 0x03 0x92 0x40 0x00 0xC0 0x00 0xF0
21:50:57.570 -> Standard ID: 0x21F       DLC: 3  Data: 0x00 0x00 0x00
21:50:57.570 -> Standard ID: 0x0B6       DLC: 8  Data: 0x00 0x00 0x00 0x00 0x00 0x00 0x00 0xD0
21:50:57.603 -> Standard ID: 0x128       DLC: 8  Data: 0x30 0xC0 0x00 0x00 0x00 0x81 0xB0 0x01
21:50:57.603 -> Standard ID: 0x14C       DLC: 5  Data: 0x00 0x00 0x00 0x00 0x80
21:50:57.603 -> Standard ID: 0x1A8       DLC: 8  Data: 0x00 0x00 0x00 0x00 0x00 0x10 0x01 0x29
21:50:57.636 -> Standard ID: 0x167       DLC: 8  Data: 0x02 0x06 0xFF 0xFF 0x7F 0xFF 0x00 0x00
21:50:57.636 -> Standard ID: 0x036       DLC: 8  Data: 0x00 0x00 0x00 0x0F 0x01 0x00 0x00 0xA0
21:50:57.636 -> Standard ID: 0x21F       DLC: 3  Data: 0x00 0x00 0x00
21:50:57.636 -> Standard ID: 0x2A1       DLC: 7  Data: 0x12 0x04 0x43 0x00 0x63 0x0D 0xDA
21:50:57.636 -> Standard ID: 0x0B6       DLC: 8  Data: 0x00 0x00 0x00 0x00 0x00 0x00 0x00 0xD0
21:50:57.669 -> Standard ID: 0x227       DLC: 4  Data: 0x00 0x00 0x00 0x00
21:50:57.669 -> Standard ID: 0x217       DLC: 8  Data: 0xF2 0x40 0x00 0x00 0x80 0xFF 0xFF 0xFF
21:50:57.669 -> Standard ID: 0x0E6       DLC: 6  Data: 0x91 0x00 0x00 0x00 0x00 0x65
21:50:57.703 -> Standard ID: 0x0B6       DLC: 8  Data: 0x00 0x00 0x00 0x00 0x00 0x00 0x00 0xD0
21:50:57.703 -> Standard ID: 0x14C       DLC: 5  Data: 0x00 0x00 0x00 0x00 0x80
21:50:57.703 -> Standard ID: 0x128       DLC: 8  Data: 0x70 0xC1 0x00 0x00 0x00 0xC5 0xB0 0x01
21:50:57.703 -> Standard ID: 0x168       DLC: 8  Data: 0x8E 0x00 0x00 0xA2 0x24 0x00 0x30 0x00
21:50:57.736 -> Standard ID: 0x167       DLC: 8  Data: 0x02 0x06 0xFF 0xFF 0x7F 0xFF 0x00 0x00
21:50:57.736 -> Standard ID: 0x036       DLC: 8  Data: 0x00 0x00 0x00 0x0F 0x01 0x00 0x00 0xA0
21:50:57.736 -> Standard ID: 0x018       DLC: 5  Data: 0x80 0x00 0x02 0x00 0x00
21:50:57.736 -> Standard ID: 0x0E6       DLC: 6  Data: 0x91 0x00 0x00 0x00 0x00 0x65
21:50:57.736 -> Standard ID: 0x0B6       DLC: 8  Data: 0x00 0x00 0x00 0x00 0x00 0x00 0x00 0xD0
21:50:57.769 -> Standard ID: 0x161       DLC: 7  Data: 0x00 0x00 0x39 0x0F 0x00 0x00 0x64
21:50:57.769 -> Standard ID: 0x217       DLC: 8  Data: 0xF2 0x40 0x00 0x00 0x80 0xFF 0xFF 0xFF
21:50:57.769 -> Standard ID: 0x1A1       DLC: 8  Data: 0x7F 0xFF 0x00 0xFF 0xFF 0xFF 0xFF 0xFF
21:50:57.769 -> Standard ID: 0x21F       DLC: 3  Data: 0x00 0x00 0x00
21:50:57.802 -> Standard ID: 0x0B6       DLC: 8  Data: 0x00 0x00 0x00 0x00 0x00 0x00 0x00 0xD0
21:50:57.802 -> Standard ID: 0x128       DLC: 8  Data: 0x70 0xC1 0x00 0x00 0x00 0xC5 0xB0 0x01
21:50:57.802 -> Standard ID: 0x14C       DLC: 5  Data: 0x00 0x00 0x00 0x00 0x80
21:50:57.802 -> Standard ID: 0x3A7       DLC: 8  Data: 0x10 0x00 0x00 0x03 0x66 0x00 0x36 0x05
21:50:57.802 -> Standard ID: 0x1A8       DLC: 8  Data: 0x00 0x00 0x00 0x00 0x00 0x10 0x01 0x29
21:50:57.835 -> Standard ID: 0x167       DLC: 8  Data: 0x02 0x06 0xFF 0xFF 0x7F 0xFF 0x00 0x00
21:50:57.835 -> Standard ID: 0x036       DLC: 8  Data: 0x00 0x00 0x00 0x0F 0x01 0x00 0x00 0xA0
21:50:57.835 -> Standard ID: 0x317       DLC: 8  Data: 0xF3 0x9D 0x92 0xCC 0xD8 0x00 0x86 0x02
21:50:57.835 -> Standard ID: 0x21F       DLC: 3  Data: 0x00 0x00 0x00
21:50:57.835 -> Standard ID: 0x0B6       DLC: 8  Data: 0x00 0x00 0x00 0x00 0x00 0x00 0x00 0xD0
21:50:57.868 -> Standard ID: 0x220       DLC: 2  Data: 0x00 0x00
21:50:57.868 -> Standard ID: 0x217       DLC: 8  Data: 0xF2 0x40 0x00 0x00 0x80 0xFF 0xFF 0xFF
21:50:57.868 -> Standard ID: 0x51F       DLC: 8  Data: 0x01 0x00 0x00 0x00 0x00 0x00 0x00 0x00
21:50:57.868 -> Standard ID: 0x0DF       DLC: 3  Data: 0x04 0x00 0x40
21:50:57.902 -> Standard ID: 0x525       DLC: 8  Data: 0x05 0x00 0x00 0x00 0x00 0x80 0x00 0x00
21:50:57.902 -> Standard ID: 0x512       DLC: 8  Data: 0x01 0x00 0x00 0x00 0x00 0x80 0x00 0x00
21:50:57.902 -> Standard ID: 0x14C       DLC: 5  Data: 0x00 0x00 0x00 0x00 0x80
21:50:57.902 -> Standard ID: 0x0B6       DLC: 8  Data: 0x00 0x00 0x00 0x00 0x00 0x00 0x00 0xD0
21:50:57.902 -> Standard ID: 0x168       DLC: 8  Data: 0x8E 0x00 0x00 0xA2 0x24 0x00 0x30 0x00
21:50:57.935 -> Standard ID: 0x167       DLC: 8  Data: 0x02 0x06 0xFF 0xFF 0x7F 0xFF 0x00 0x00
21:50:57.935 -> Standard ID: 0x036       DLC: 8  Data: 0x00 0x00 0x00 0x0F 0x01 0x00 0x00 0xA0
21:50:57.935 -> Standard ID: 0x018       DLC: 5  Data: 0x80 0x00 0x02 0x00 0x00
21:50:57.935 -> Standard ID: 0x261       DLC: 7  Data: 0x22 0x27 0x0F 0x00 0x50 0x44 0x97
21:50:57.935 -> Standard ID: 0x0B6       DLC: 8  Data: 0x00 0x00 0x00 0x00 0x00 0x00 0x00 0xD0
21:50:57.968 -> Standard ID: 0x361       DLC: 6  Data: 0x01 0x00 0x00 0x60 0x10 0x08
21:50:57.968 -> Standard ID: 0x3F6       DLC: 7  Data: 0x06 0xB0 0x10 0xCE 0x00 0x84 0x01
21:50:57.968 -> Standard ID: 0x1A1       DLC: 8  Data: 0x7F 0xFF 0x00 0xFF 0xFF 0xFF 0xFF 0xFF
21:50:57.968 -> Standard ID: 0x21F       DLC: 3  Data: 0x00 0x00 0x00
21:50:57.968 -> Standard ID: 0x0F6       DLC: 8  Data: 0x88 0x41 0x10 0xF2 0xCA 0x6C 0x6C 0x18
21:50:58.001 -> Standard ID: 0x0B6       DLC: 8  Data: 0x00 0x00 0x00 0x00 0x00 0x00 0x00 0xD0
21:50:58.001 -> Standard ID: 0x128       DLC: 8  Data: 0x70 0xC1 0x00 0x00 0x00 0xC5 0xB0 0x01
21:50:58.001 -> Standard ID: 0x14C       DLC: 5  Data: 0x00 0x00 0x00 0x00 0x80
21:50:58.001 -> Standard ID: 0x2A0       DLC: 1  Data: 0x00
21:50:58.001 -> Standard ID: 0x1A8       DLC: 8  Data: 0x00 0x00 0x00 0x00 0x00 0x10 0x01 0x29
21:50:58.034 -> Standard ID: 0x167       DLC: 8  Data: 0x02 0x06 0xFF 0xFF 0x7F 0xFF 0x00 0x00
21:50:58.034 -> Standard ID: 0x036       DLC: 8  Data: 0x00 0x00 0x00 0x0F 0x01 0x00 0x00 0xA0
21:50:58.034 -> Standard ID: 0x21F       DLC: 3  Data: 0x00 0x00 0x00
21:50:58.034 -> Standard ID: 0x3B6       DLC: 6  Data: 0x57 0x43 0x4B 0x46 0x56 0x43
21:50:58.034 -> Standard ID: 0x0B6       DLC: 8  Data: 0x00 0x00 0x00 0x00 0x00 0x00 0x00 0xD0
21:50:58.068 -> Standard ID: 0x260       DLC: 8  Data: 0x03 0x03 0x92 0x40 0x00 0xD0 0x00 0x10
21:50:58.068 -> Standard ID: 0x217       DLC: 8  Data: 0xF2 0x40 0x00 0x00 0x80 0xFF 0xFF 0xFF
21:50:58.068 -> Standard ID: 0x0E6       DLC: 6  Data: 0x91 0x00 0x00 0x00 0x00 0x65
21:50:58.068 -> Standard ID: 0x15B       DLC: 8  Data: 0x01 0x03 0x92 0x40 0x00 0xC0 0x00 0xF0
21:50:58.101 -> Standard ID: 0x0B6       DLC: 8  Data: 0x00 0x00 0x00 0x00 0x00 0x00 0x00 0xD0
21:50:58.101 -> Standard ID: 0x14C       DLC: 5  Data: 0x00 0x00 0x00 0x00 0x80
21:50:58.101 -> Standard ID: 0x168       DLC: 8  Data: 0x8E 0x00 0x00 0xA2 0x24 0x00 0x30 0x00
21:50:58.134 -> Standard ID: 0x167       DLC: 8  Data: 0x02 0x06 0xFF 0xFF 0x7F 0xFF 0x00 0x00
21:50:58.134 -> Standard ID: 0x036       DLC: 8  Data: 0x00 0x00 0x00 0x0F 0x01 0x00 0x00 0xA0
21:50:58.134 -> Standard ID: 0x018       DLC: 5  Data: 0x80 0x00 0x02 0x00 0x00
21:50:58.134 -> Standard ID: 0x221       DLC: 7  Data: 0x00 0xFF 0xFF 0xFF 0xFF 0xFF 0xFF
21:50:58.134 -> Standard ID: 0x0B6       DLC: 8  Data: 0x00 0x00 0x00 0x00 0x00 0x00 0x00 0xD0
21:50:58.167 -> Standard ID: 0x227       DLC: 4  Data: 0x00 0x00 0x00 0x00
21:50:58.167 -> Standard ID: 0x217       DLC: 8  Data: 0xF2 0x40 0x00 0x00 0x80 0xFF 0xFF 0xFF
21:50:58.167 -> Standard ID: 0x1A1       DLC: 8  Data: 0x7F 0xFF 0x00 0xFF 0xFF 0xFF 0xFF 0xFF
21:50:58.167 -> Standard ID: 0x21F       DLC: 3  Data: 0x00 0x00 0x00
21:50:58.200 -> Standard ID: 0x0B6       DLC: 8  Data: 0x00 0x00 0x00 0x00 0x00 0x00 0x00 0xD0
21:50:58.200 -> Standard ID: 0x128       DLC: 8  Data: 0x70 0xC1 0x00 0x00 0x00 0xC5 0xB0 0x01
21:50:58.200 -> Standard ID: 0x14C       DLC: 5  Data: 0x00 0x00 0x00 0x00 0x80
21:50:58.200 -> Standard ID: 0x1A8       DLC: 8  Data: 0x00 0x00 0x00 0x00 0x00 0x10 0x01 0x29
21:50:58.233 -> Standard ID: 0x167       DLC: 8  Data: 0x02 0x06 0xFF 0xFF 0x7F 0xFF 0x00 0x00
21:50:58.233 -> Standard ID: 0x036       DLC: 8  Data: 0x00 0x00 0x00 0x0F 0x01 0x00 0x00 0xA0
21:50:58.233 -> Standard ID: 0x21F       DLC: 3  Data: 0x00 0x00 0x00
21:50:58.233 -> Standard ID: 0x2B6       DLC: 8  Data: 0x33 0x34 0x30 0x32 0x38 0x39 0x33 0x37
21:50:58.233 -> Standard ID: 0x0B6       DLC: 8  Data: 0x00 0x00 0x00 0x00 0x00 0x00 0x00 0xD0
21:50:58.266 -> Standard ID: 0x161       DLC: 7  Data: 0x00 0x00 0x39 0x0F 0x00 0x00 0x64
21:50:58.266 -> Standard ID: 0x217       DLC: 8  Data: 0xF2 0x40 0x00 0x00 0x80 0xFF 0xFF 0xFF
21:50:58.266 -> Standard ID: 0x0E6       DLC: 6  Data: 0x91 0x00 0x00 0x00 0x00 0x65
21:50:58.300 -> Standard ID: 0x0B6       DLC: 8  Data: 0x00 0x00 0x00 0x00 0x00 0x00 0x00 0xD0
21:50:58.300 -> Standard ID: 0x14C       DLC: 5  Data: 0x00 0x00 0x00 0x00 0x80
21:50:58.300 -> Standard ID: 0x3A7       DLC: 8  Data: 0x10 0x00 0x00 0x03 0x66 0x00 0x36 0x05
21:50:58.300 -> Standard ID: 0x168       DLC: 8  Data: 0x8E 0x00 0x00 0xA2 0x24 0x00 0x30 0x00
21:50:58.333 -> Standard ID: 0x167       DLC: 8  Data: 0x02 0x06 0xFF 0xFF 0x7F 0xFF 0x00 0x00
21:50:58.333 -> Standard ID: 0x036       DLC: 8  Data: 0x00 0x00 0x00 0x0F 0x01 0x00 0x00 0xA0
21:50:58.333 -> Standard ID: 0x018       DLC: 5  Data: 0x80 0x00 0x02 0x00 0x00
21:50:58.333 -> Standard ID: 0x0E6       DLC: 6  Data: 0x91 0x00 0x00 0x00 0x00 0x65
21:50:58.333 -> Standard ID: 0x0B6       DLC: 8  Data: 0x00 0x00 0x00 0x00 0x00 0x00 0x00 0xD0
21:50:58.366 -> Standard ID: 0x220       DLC: 2  Data: 0x00 0x00
21:50:58.366 -> Standard ID: 0x217       DLC: 8  Data: 0xF2 0x40 0x00 0x00 0x80 0xFF 0xFF 0xFF
21:50:58.366 -> Standard ID: 0x1A1       DLC: 8  Data: 0x7F 0xFF 0x00 0xFF 0xFF 0xFF 0xFF 0xFF
21:50:58.366 -> Standard ID: 0x21F       DLC: 3  Data: 0x00 0x00 0x00
21:50:58.399 -> Standard ID: 0x0DF       DLC: 3  Data: 0x04 0x00 0x40
21:50:58.399 -> Standard ID: 0x0B6       DLC: 8  Data: 0x00 0x00 0x00 0x00 0x00 0x00 0x00 0xD0
21:50:58.399 -> Standard ID: 0x128       DLC: 8  Data: 0x70 0xC1 0x00 0x00 0x00 0xC5 0xB0 0x01
21:50:58.399 -> Standard ID: 0x14C       DLC: 5  Data: 0x00 0x00 0x00 0x00 0x80
21:50:58.432 -> Standard ID: 0x1A8       DLC: 8  Data: 0x00 0x00 0x00 0x00 0x00 0x10 0x01 0x29
21:50:58.432 -> Standard ID: 0x167       DLC: 8  Data: 0x02 0x06 0xFF 0xFF 0x7F 0xFF 0x00 0x00
21:50:58.432 -> Standard ID: 0x036       DLC: 8  Data: 0x00 0x00 0x00 0x0F 0x01 0x00 0x00 0xA0
21:50:58.432 -> Standard ID: 0x21F       DLC: 3  Data: 0x00 0x00 0x00
21:50:58.432 -> Standard ID: 0x0E6       DLC: 6  Data: 0x91 0x00 0x00 0x00 0x00 0x65
21:50:58.432 -> Standard ID: 0x0B6       DLC: 8  Data: 0x00 0x00 0x00 0x00 0x00 0x00 0x00 0xD0
21:50:58.465 -> Standard ID: 0x361       DLC: 6  Data: 0x01 0x00 0x00 0x60 0x10 0x08
21:50:58.465 -> Standard ID: 0x217       DLC: 8  Data: 0xF2 0x40 0x00 0x00 0x80 0xFF 0xFF 0xFF
21:50:58.498 -> Standard ID: 0x0F6       DLC: 8  Data: 0x88 0x41 0x10 0xF2 0xCA 0x6C 0x6C 0x18
21:50:58.498 -> Standard ID: 0x0B6       DLC: 8  Data: 0x00 0x00 0x00 0x00 0x00 0x00 0x00 0xD0
21:50:58.498 -> Standard ID: 0x14C       DLC: 5  Data: 0x00 0x00 0x00 0x00 0x80
21:50:58.498 -> Standard ID: 0x2A0       DLC: 1  Data: 0x00
21:50:58.498 -> Standard ID: 0x168       DLC: 8  Data: 0x8E 0x00 0x00 0xA2 0x24 0x00 0x30 0x00
21:50:58.532 -> Standard ID: 0x167       DLC: 8  Data: 0x02 0x06 0xFF 0xFF 0x7F 0xFF 0x00 0x00
21:50:58.532 -> Standard ID: 0x036       DLC: 8  Data: 0x00 0x00 0x00 0x0F 0x01 0x00 0x00 0xA0
21:50:58.532 -> Standard ID: 0x018       DLC: 5  Data: 0x80 0x00 0x02 0x00 0x00
21:50:58.532 -> Standard ID: 0x336       DLC: 3  Data: 0x56 0x46 0x33
21:50:58.565 -> Standard ID: 0x0B6       DLC: 8  Data: 0x00 0x00 0x00 0x00 0x00 0x00 0x00 0xD0
21:50:58.565 -> Standard ID: 0x260       DLC: 8  Data: 0x01 0x03 0x92 0x40 0x00 0xC0 0x00 0x10
21:50:58.565 -> Standard ID: 0x217       DLC: 8  Data: 0xF2 0x40 0x00 0x00 0x80 0xFF 0xFF 0xFF
21:50:58.565 -> Standard ID: 0x1A1       DLC: 8  Data: 0x7F 0xFF 0x00 0xFF 0xFF 0xFF 0xFF 0xFF
21:50:58.565 -> Standard ID: 0x15B       DLC: 8  Data: 0x01 0x03 0x92 0x40 0x00 0xC0 0x00 0xF0
21:50:58.565 -> Standard ID: 0x21F       DLC: 3  Data: 0x00 0x00 0x00
21:50:58.598 -> Standard ID: 0x0B6       DLC: 8  Data: 0x00 0x00 0x00 0x00 0x00 0x00 0x00 0xD0
21:50:58.598 -> Standard ID: 0x128       DLC: 8  Data: 0x70 0xC1 0x00 0x00 0x00 0xC5 0xB0 0x01
21:50:58.598 -> Standard ID: 0x14C       DLC: 5  Data: 0x00 0x00 0x00 0x00 0x80
21:50:58.631 -> Standard ID: 0x1A8       DLC: 8  Data: 0x00 0x00 0x00 0x00 0x00 0x10 0x01 0x29
21:50:58.631 -> Standard ID: 0x167       DLC: 8  Data: 0x02 0x06 0xFF 0xFF 0x7F 0xFF 0x00 0x00
21:50:58.631 -> Standard ID: 0x036       DLC: 8  Data: 0x00 0x00 0x00 0x0F 0x01 0x00 0x00 0xA0
21:50:58.631 -> Standard ID: 0x2A1       DLC: 7  Data: 0x12 0x04 0x43 0x00 0x63 0x0D 0xDA
21:50:58.631 -> Standard ID: 0x0E6       DLC: 6  Data: 0x91 0x00 0x00 0x00 0x00 0x65
21:50:58.664 -> Standard ID: 0x0B6       DLC: 8  Data: 0x00 0x00 0x00 0x00 0x00 0x00 0x00 0xD0
21:50:58.664 -> Standard ID: 0x227       DLC: 4  Data: 0x00 0x00 0x00 0x00
21:50:58.664 -> Standard ID: 0x217       DLC: 8  Data: 0xF2 0x40 0x00 0x00 0x80 0xFF 0xFF 0xFF
21:50:58.664 -> Standard ID: 0x21F       DLC: 3  Data: 0x00 0x00 0x00
21:50:58.697 -> Standard ID: 0x128       DLC: 8  Data: 0x60 0x01 0x00 0x00 0x00 0xC4 0xB0 0x01
21:50:58.697 -> Standard ID: 0x168       DLC: 8  Data: 0x02 0x00 0x00 0x02 0x04 0x00 0x00 0x00
21:50:58.697 -> Standard ID: 0x0F6       DLC: 8  Data: 0x88 0x41 0x10 0xF2 0xCA 0x6C 0x6C 0x10
21:50:58.697 -> Standard ID: 0x14C       DLC: 5  Data: 0x00 0x00 0x00 0x00 0x80
21:50:58.697 -> Standard ID: 0x0B6       DLC: 8  Data: 0x00 0x00 0x00 0x00 0x00 0x00 0x00 0xD0
21:50:58.731 -> Standard ID: 0x167       DLC: 8  Data: 0x02 0x06 0xFF 0xFF 0x7F 0xFF 0x00 0x00
21:50:58.731 -> Standard ID: 0x168       DLC: 8  Data: 0x02 0x00 0x00 0x02 0x04 0x00 0x00 0x00
21:50:58.731 -> Standard ID: 0x036       DLC: 8  Data: 0x00 0x00 0x00 0x0F 0x01 0x00 0x00 0xA0
21:50:58.731 -> Standard ID: 0x018       DLC: 5  Data: 0x80 0x00 0x02 0x00 0x00
21:50:58.731 -> Standard ID: 0x0E6       DLC: 6  Data: 0x91 0x00 0x00 0x00 0x00 0x65
21:50:58.764 -> Standard ID: 0x161       DLC: 7  Data: 0x00 0x00 0x39 0x0F 0x00 0x00 0x64
21:50:58.764 -> Standard ID: 0x217       DLC: 8  Data: 0xF2 0x80 0x00 0x00 0x80 0xFF 0xFF 0xFF
21:50:58.764 -> Standard ID: 0x1A1       DLC: 8  Data: 0x7F 0xFF 0x00 0xFF 0xFF 0xFF 0xFF 0xFF
21:50:58.797 -> Standard ID: 0x0B6       DLC: 8  Data: 0x00 0x00 0x00 0x00 0x00 0x00 0x00 0xD0
21:50:58.797 -> Standard ID: 0x128       DLC: 8  Data: 0x60 0x01 0x00 0x00 0x00 0xC4 0xB0 0x01
21:50:58.797 -> Standard ID: 0x14C       DLC: 5  Data: 0x00 0x00 0x00 0x00 0x80
21:50:58.797 -> Standard ID: 0x3A7       DLC: 8  Data: 0x10 0x00 0x00 0x03 0x66 0x00 0x36 0x05
21:50:58.830 -> Standard ID: 0x1A8       DLC: 8  Data: 0x00 0x00 0x00 0x00 0x00 0x10 0x01 0x29
21:50:58.830 -> Standard ID: 0x167       DLC: 8  Data: 0x02 0x06 0xFF 0xFF 0x7F 0xFF 0x00 0x00
21:50:58.830 -> Standard ID: 0x036       DLC: 8  Data: 0x00 0x00 0x00 0x0F 0x01 0x00 0x00 0xA0
21:50:58.830 -> Standard ID: 0x217       DLC: 8  Data: 0xF2 0x80 0x00 0x00 0x80 0xFF 0xFF 0xFF
21:50:58.830 -> Standard ID: 0x51F       DLC: 8  Data: 0x01 0x00 0x00 0x00 0x00 0x00 0x00 0x00
21:50:58.863 -> Standard ID: 0x0B6       DLC: 8  Data: 0x00 0x00 0x00 0x00 0x00 0x00 0x00 0xD0
21:50:58.863 -> Standard ID: 0x220       DLC: 2  Data: 0x00 0x00
21:50:58.863 -> Standard ID: 0x317       DLC: 8  Data: 0xF3 0x9D 0x92 0xCC 0xD8 0x00 0x86 0x02
21:50:58.897 -> Standard ID: 0x0DF       DLC: 3  Data: 0x04 0x00 0x40
21:50:58.897 -> Standard ID: 0x525       DLC: 8  Data: 0x05 0x00 0x00 0x00 0x00 0x80 0x00 0x00
21:50:58.897 -> Standard ID: 0x512       DLC: 8  Data: 0x01 0x00 0x00 0x00 0x00 0x80 0x00 0x00
21:50:58.897 -> Standard ID: 0x14C       DLC: 5  Data: 0x00 0x00 0x00 0x00 0x80
21:50:58.897 -> Standard ID: 0x0B6       DLC: 8  Data: 0x00 0x00 0x00 0x00 0x00 0x00 0x00 0xD0
21:50:58.930 -> Standard ID: 0x168       DLC: 8  Data: 0x02 0x00 0x00 0x02 0x04 0x00 0x00 0x00
21:50:58.930 -> Standard ID: 0x167       DLC: 8  Data: 0x02 0x06 0xFF 0xFF 0x7F 0xFF 0x00 0x00
21:50:58.930 -> Standard ID: 0x018       DLC: 5  Data: 0x80 0x00 0x02 0x00 0x00
21:50:58.930 -> Standard ID: 0x217       DLC: 8  Data: 0xF2 0x80 0x00 0x00 0x80 0xFF 0xFF 0xFF
21:50:58.930 -> Standard ID: 0x261       DLC: 7  Data: 0x22 0x27 0x0F 0x00 0x50 0x44 0x97
21:50:58.963 -> Standard ID: 0x0B6       DLC: 8  Data: 0x00 0x00 0x00 0x00 0x00 0x00 0x00 0xD0
21:50:58.963 -> Standard ID: 0x361       DLC: 6  Data: 0x01 0x00 0x00 0x60 0x10 0x08
21:50:58.963 -> Standard ID: 0x3F6       DLC: 7  Data: 0x06 0xB0 0x20 0xCE 0x00 0x84 0x01
21:50:58.963 -> Standard ID: 0x1A1       DLC: 8  Data: 0x7F 0xFF 0x00 0xFF 0xFF 0xFF 0xFF 0xFF
21:50:58.963 -> Standard ID: 0x036       DLC: 8  Data: 0x00 0x00 0x00 0x0F 0x01 0x00 0x00 0xA0
21:50:58.996 -> Standard ID: 0x0F6       DLC: 8  Data: 0x88 0x41 0x10 0xF2 0xCA 0x6C 0x6C 0x10
21:50:58.996 -> Standard ID: 0x0B6       DLC: 8  Data: 0x00 0x00 0x00 0x00 0x00 0x00 0x00 0xD0
21:50:58.996 -> Standard ID: 0x128       DLC: 8  Data: 0x60 0x01 0x00 0x00 0x00 0xC4 0xB0 0x01
21:50:58.996 -> Standard ID: 0x14C       DLC: 5  Data: 0x00 0x00 0x00 0x00 0x80
21:50:58.996 -> Standard ID: 0x2A0       DLC: 1  Data: 0x00
21:50:59.029 -> Standard ID: 0x1A8       DLC: 8  Data: 0x00 0x00 0x00 0x00 0x00 0x10 0x01 0x29
21:50:59.029 -> Standard ID: 0x167       DLC: 8  Data: 0x02 0x06 0xFF 0xFF 0x7F 0xFF 0x00 0x00
21:50:59.029 -> Standard ID: 0x036       DLC: 8  Data: 0x00 0x00 0x00 0x0F 0x01 0x00 0x00 0xA0
21:50:59.029 -> Standard ID: 0x217       DLC: 8  Data: 0xF2 0x80 0x00 0x00 0x80 0xFF 0xFF 0xFF
21:50:59.029 -> Standard ID: 0x0E6       DLC: 6  Data: 0x91 0x00 0x00 0x00 0x00 0x65
21:50:59.062 -> Standard ID: 0x0B6       DLC: 8  Data: 0x00 0x00 0x00 0x00 0x00 0x00 0x00 0xD0
21:50:59.062 -> Standard ID: 0x260       DLC: 8  Data: 0x02 0x03 0x92 0x40 0x00 0xD0 0x00 0x10
21:50:59.062 -> Standard ID: 0x3B6       DLC: 6  Data: 0x57 0x43 0x4B 0x46 0x56 0x43
21:50:59.062 -> Standard ID: 0x15B       DLC: 8  Data: 0x01 0x03 0x92 0x40 0x00 0xC0 0x00 0xF0
21:50:59.095 -> Standard ID: 0x0B6       DLC: 8  Data: 0x00 0x00 0x00 0x00 0x00 0x00 0x00 0xD0
21:50:59.095 -> Standard ID: 0x14C       DLC: 5  Data: 0x00 0x00 0x00 0x00 0x80
21:50:59.129 -> Standard ID: 0x168       DLC: 8  Data: 0x02 0x00 0x00 0x02 0x04 0x00 0x00 0x00
21:50:59.129 -> Standard ID: 0x167       DLC: 8  Data: 0x02 0x06 0xFF 0xFF 0x7F 0xFF 0x00 0x00
21:50:59.129 -> Standard ID: 0x018       DLC: 5  Data: 0x80 0x00 0x02 0x00 0x00
21:50:59.129 -> Standard ID: 0x217       DLC: 8  Data: 0xF2 0x80 0x00 0x00 0x80 0xFF 0xFF 0xFF
21:50:59.129 -> Standard ID: 0x221       DLC: 7  Data: 0x00 0xFF 0xFF 0xFF 0xFF 0xFF 0xFF
21:50:59.162 -> Standard ID: 0x0B6       DLC: 8  Data: 0x00 0x00 0x00 0x00 0x00 0x00 0x00 0xD0
21:50:59.162 -> Standard ID: 0x227       DLC: 4  Data: 0x00 0x00 0x00 0x00
21:50:59.162 -> Standard ID: 0x036       DLC: 8  Data: 0x00 0x00 0x00 0x0F 0x01 0x00 0x00 0xA0
21:50:59.162 -> Standard ID: 0x1A1       DLC: 8  Data: 0x7F 0xFF 0x00 0xFF 0xFF 0xFF 0xFF 0xFF
21:50:59.195 -> Standard ID: 0x0B6       DLC: 8  Data: 0x00 0x00 0x00 0x00 0x00 0x00 0x00 0xD0
21:50:59.195 -> Standard ID: 0x128       DLC: 8  Data: 0x60 0x01 0x00 0x00 0x00 0xC4 0xB0 0x01
21:50:59.195 -> Standard ID: 0x14C       DLC: 5  Data: 0x00 0x00 0x00 0x00 0x80
21:50:59.228 -> Standard ID: 0x1A8       DLC: 8  Data: 0x00 0x00 0x00 0x00 0x00 0x10 0x01 0x29
21:50:59.228 -> Standard ID: 0x167       DLC: 8  Data: 0x02 0x06 0xFF 0xFF 0x7F 0xFF 0x00 0x00
21:50:59.228 -> Standard ID: 0x036       DLC: 8  Data: 0x00 0x00 0x00 0x0F 0x01 0x00 0x00 0xA0
21:50:59.228 -> Standard ID: 0x217       DLC: 8  Data: 0xF2 0x80 0x00 0x00 0x80 0xFF 0xFF 0xFF
21:50:59.228 -> Standard ID: 0x0E6       DLC: 6  Data: 0x91 0x00 0x00 0x00 0x00 0x65
21:50:59.261 -> Standard ID: 0x0B6       DLC: 8  Data: 0x00 0x00 0x00 0x00 0x00 0x00 0x00 0xD0
21:50:59.261 -> Standard ID: 0x161       DLC: 7  Data: 0x00 0x00 0x39 0x0F 0x00 0x00 0x64
21:50:59.261 -> Standard ID: 0x2B6       DLC: 8  Data: 0x33 0x34 0x30 0x32 0x38 0x39 0x33 0x37
21:50:59.294 -> Standard ID: 0x0B6       DLC: 8  Data: 0x00 0x00 0x00 0x00 0x00 0x00 0x00 0xD0
21:50:59.294 -> Standard ID: 0x14C       DLC: 5  Data: 0x00 0x00 0x00 0x00 0x80
21:50:59.294 -> Standard ID: 0x3A7       DLC: 8  Data: 0x10 0x00 0x00 0x03 0x66 0x00 0x36 0x05
21:50:59.328 -> Standard ID: 0x168       DLC: 8  Data: 0x02 0x00 0x00 0x02 0x04 0x00 0x00 0x00
21:50:59.328 -> Standard ID: 0x167       DLC: 8  Data: 0x02 0x06 0xFF 0xFF 0x7F 0xFF 0x00 0x00
21:50:59.328 -> Standard ID: 0x018       DLC: 5  Data: 0x80 0x00 0x02 0x00 0x00
21:50:59.328 -> Standard ID: 0x217       DLC: 8  Data: 0xF2 0x80 0x00 0x00 0x80 0xFF 0xFF 0xFF
21:50:59.328 -> Standard ID: 0x0E6       DLC: 6  Data: 0x91 0x00 0x00 0x00 0x00 0x65
21:50:59.361 -> Standard ID: 0x0B6       DLC: 8  Data: 0x00 0x00 0x00 0x00 0x00 0x00 0x00 0xD0
21:50:59.361 -> Standard ID: 0x220       DLC: 2  Data: 0x00 0x00
21:50:59.361 -> Standard ID: 0x036       DLC: 8  Data: 0x00 0x00 0x00 0x0F 0x01 0x00 0x00 0xA0
21:50:59.361 -> Standard ID: 0x1A1       DLC: 8  Data: 0x7F 0xFF 0x00 0xFF 0xFF 0xFF 0xFF 0xFF
21:50:59.394 -> Standard ID: 0x0DF       DLC: 3  Data: 0x04 0x00 0x40
21:50:59.394 -> Standard ID: 0x0B6       DLC: 8  Data: 0x00 0x00 0x00 0x00 0x00 0x00 0x00 0xD0
21:50:59.394 -> Standard ID: 0x128       DLC: 8  Data: 0x60 0x01 0x00 0x00 0x00 0xC4 0xB0 0x01
21:50:59.394 -> Standard ID: 0x14C       DLC: 5  Data: 0x00 0x00 0x00 0x00 0x80
21:50:59.427 -> Standard ID: 0x1A8       DLC: 8  Data: 0x00 0x00 0x00 0x00 0x00 0x10 0x01 0x29
21:50:59.427 -> Standard ID: 0x167       DLC: 8  Data: 0x02 0x06 0xFF 0xFF 0x7F 0xFF 0x00 0x00
21:50:59.427 -> Standard ID: 0x036       DLC: 8  Data: 0x00 0x00 0x00 0x0F 0x01 0x00 0x00 0xA0
21:50:59.427 -> Standard ID: 0x217       DLC: 8  Data: 0xF2 0x80 0x00 0x00 0x80 0xFF 0xFF 0xFF
21:50:59.460 -> Standard ID: 0x0E6       DLC: 6  Data: 0x91 0x00 0x00 0x00 0x00 0x65
21:50:59.460 -> Standard ID: 0x0B6       DLC: 8  Data: 0x00 0x00 0x00 0x00 0x00 0x00 0x00 0xD0
21:50:59.460 -> Standard ID: 0x361       DLC: 6  Data: 0x01 0x00 0x00 0x60 0x10 0x08
21:50:59.460 -> Standard ID: 0x21F       DLC: 3  Data: 0x00 0x00 0x00
21:50:59.493 -> Standard ID: 0x0F6       DLC: 8  Data: 0x88 0x41 0x10 0xF2 0xCA 0x6C 0x6C 0x10
21:50:59.493 -> Standard ID: 0x0B6       DLC: 8  Data: 0x00 0x00 0x00 0x00 0x00 0x00 0x00 0xD0
21:50:59.493 -> Standard ID: 0x14C       DLC: 5  Data: 0x00 0x00 0x00 0x00 0x80
21:50:59.493 -> Standard ID: 0x2A0       DLC: 1  Data: 0x00
21:50:59.526 -> Standard ID: 0x168       DLC: 8  Data: 0x02 0x00 0x00 0x02 0x04 0x00 0x00 0x00
21:50:59.526 -> Standard ID: 0x167       DLC: 8  Data: 0x02 0x06 0xFF 0xFF 0x7F 0xFF 0x00 0x00
21:50:59.526 -> Standard ID: 0x018       DLC: 5  Data: 0x80 0x00 0x02 0x00 0x00
21:50:59.526 -> Standard ID: 0x217       DLC: 8  Data: 0xF2 0x80 0x00 0x00 0x80 0xFF 0xFF 0xFF
21:50:59.559 -> Standard ID: 0x336       DLC: 3  Data: 0x56 0x46 0x33
21:50:59.559 -> Standard ID: 0x0B6       DLC: 8  Data: 0x00 0x00 0x00 0x00 0x00 0x00 0x00 0xD0
21:50:59.559 -> Standard ID: 0x260       DLC: 8  Data: 0x03 0x03 0x92 0x40 0x00 0xD0 0x00 0x10
21:50:59.559 -> Standard ID: 0x036       DLC: 8  Data: 0x00 0x00 0x00 0x0F 0x01 0x00 0x00 0xA0
21:50:59.559 -> Standard ID: 0x1A1       DLC: 8  Data: 0x7F 0xFF 0x00 0xFF 0xFF 0xFF 0xFF 0xFF
21:50:59.559 -> Standard ID: 0x15B       DLC: 8  Data: 0x01 0x03 0x92 0x40 0x00 0xC0 0x00 0xF0
21:50:59.593 -> Standard ID: 0x0B6       DLC: 8  Data: 0x00 0x00 0x00 0x00 0x00 0x00 0x00 0xD0
21:50:59.593 -> Standard ID: 0x128       DLC: 8  Data: 0x60 0x01 0x00 0x00 0x00 0xC4 0xB0 0x01
21:50:59.593 -> Standard ID: 0x14C       DLC: 5  Data: 0x00 0x00 0x00 0x00 0x80
21:50:59.626 -> Standard ID: 0x1A8       DLC: 8  Data: 0x00 0x00 0x00 0x00 0x00 0x10 0x01 0x29
21:50:59.626 -> Standard ID: 0x167       DLC: 8  Data: 0x02 0x06 0xFF 0xFF 0x7F 0xFF 0x00 0x00
21:50:59.626 -> Standard ID: 0x036       DLC: 8  Data: 0x00 0x00 0x00 0x0F 0x01 0x00 0x00 0xA0
21:50:59.626 -> Standard ID: 0x2A1       DLC: 7  Data: 0x12 0x04 0x43 0x00 0x63 0x0D 0xDA
21:50:59.626 -> Standard ID: 0x0E6       DLC: 6  Data: 0x91 0x00 0x00 0x00 0x00 0x65
21:50:59.659 -> Standard ID: 0x0B6       DLC: 8  Data: 0x00 0x00 0x00 0x00 0x00 0x00 0x00 0xD0
21:50:59.659 -> Standard ID: 0x21F       DLC: 3  Data: 0x00 0x00 0x00
21:50:59.659 -> Standard ID: 0x227       DLC: 4  Data: 0x00 0x00 0x00 0x00
21:50:59.659 -> Standard ID: 0x217       DLC: 8  Data: 0xF2 0x80 0x00 0x00 0x80 0xFF 0xFF 0xFF
21:50:59.692 -> Standard ID: 0x0B6       DLC: 8  Data: 0x00 0x00 0x00 0x00 0x00 0x00 0x00 0xD0
21:50:59.692 -> Standard ID: 0x14C       DLC: 5  Data: 0x00 0x00 0x00 0x00 0x80
21:50:59.725 -> Standard ID: 0x168       DLC: 8  Data: 0x02 0x00 0x00 0x02 0x04 0x00 0x00 0x00
21:50:59.725 -> Standard ID: 0x167       DLC: 8  Data: 0x02 0x06 0xFF 0xFF 0x7F 0xFF 0x00 0x00
21:50:59.725 -> Standard ID: 0x018       DLC: 5  Data: 0x80 0x00 0x02 0x00 0x00
21:50:59.725 -> Standard ID: 0x217       DLC: 8  Data: 0xF2 0x80 0x00 0x00 0x80 0xFF 0xFF 0xFF
21:50:59.758 -> Standard ID: 0x0E6       DLC: 6  Data: 0x91 0x00 0x00 0x00 0x00 0x65
21:50:59.758 -> Standard ID: 0x0B6       DLC: 8  Data: 0x00 0x00 0x00 0x00 0x00 0x00 0x00 0xD0
21:50:59.758 -> Standard ID: 0x161       DLC: 7  Data: 0x00 0x00 0x39 0x0F 0x00 0x00 0x64
21:50:59.758 -> Standard ID: 0x1A1       DLC: 8  Data: 0x7F 0xFF 0x00 0xFF 0xFF 0xFF 0xFF 0xFF
21:50:59.758 -> Standard ID: 0x036       DLC: 8  Data: 0x00 0x00 0x00 0x0F 0x01 0x00 0x00 0xA0
21:50:59.791 -> Standard ID: 0x0B6       DLC: 8  Data: 0x00 0x00 0x00 0x00 0x00 0x00 0x00 0xD0
21:50:59.791 -> Standard ID: 0x128       DLC: 8  Data: 0x60 0x01 0x00 0x00 0x00 0xC4 0xB0 0x01
21:50:59.791 -> Standard ID: 0x14C       DLC: 5  Data: 0x00 0x00 0x00 0x00 0x80
21:50:59.791 -> Standard ID: 0x3A7       DLC: 8  Data: 0x10 0x00 0x00 0x03 0x66 0x00 0x36 0x05
21:50:59.825 -> Standard ID: 0x1A8       DLC: 8  Data: 0x00 0x00 0x00 0x00 0x00 0x10 0x01 0x29
21:50:59.825 -> Standard ID: 0x167       DLC: 8  Data: 0x02 0x06 0xFF 0xFF 0x7F 0xFF 0x00 0x00
21:50:59.825 -> Standard ID: 0x036       DLC: 8  Data: 0x00 0x00 0x00 0x0F 0x01 0x00 0x00 0xA0
21:50:59.825 -> Standard ID: 0x217       DLC: 8  Data: 0xF2 0x80 0x00 0x00 0x80 0xFF 0xFF 0xFF
21:50:59.858 -> Standard ID: 0x51F       DLC: 8  Data: 0x01 0x00 0x00 0x00 0x00 0x00 0x00 0x00
21:50:59.858 -> Standard ID: 0x0B6       DLC: 8  Data: 0x00 0x00 0x00 0x00 0x00 0x00 0x00 0xD0
21:50:59.858 -> Standard ID: 0x220       DLC: 2  Data: 0x00 0x00
21:50:59.858 -> Standard ID: 0x317       DLC: 8  Data: 0xF3 0x9D 0x92 0xCC 0xD8 0x00 0x86 0x02
21:50:59.891 -> Standard ID: 0x0DF       DLC: 3  Data: 0x04 0x00 0x40
21:50:59.891 -> Standard ID: 0x525       DLC: 8  Data: 0x05 0x00 0x00 0x00 0x00 0x80 0x00 0x00
21:50:59.891 -> Standard ID: 0x512       DLC: 8  Data: 0x01 0x00 0x00 0x00 0x00 0x80 0x00 0x00
21:50:59.891 -> Standard ID: 0x14C       DLC: 5  Data: 0x00 0x00 0x00 0x00 0x80
21:50:59.924 -> Standard ID: 0x0B6       DLC: 8  Data: 0x00 0x00 0x00 0x00 0x00 0x00 0x00 0xD0
21:50:59.924 -> Standard ID: 0x168       DLC: 8  Data: 0x02 0x00 0x00 0x02 0x04 0x00 0x00 0x00
21:50:59.924 -> Standard ID: 0x167       DLC: 8  Data: 0x02 0x06 0xFF 0xFF 0x7F 0xFF 0x00 0x00
21:50:59.924 -> Standard ID: 0x018       DLC: 5  Data: 0x80 0x00 0x02 0x00 0x00
21:50:59.924 -> Standard ID: 0x217       DLC: 8  Data: 0xF2 0x80 0x00 0x00 0x80 0xFF 0xFF 0xFF
21:50:59.957 -> Standard ID: 0x261       DLC: 7  Data: 0x22 0x27 0x0F 0x00 0x50 0x44 0x97
21:50:59.957 -> Standard ID: 0x0B6       DLC: 8  Data: 0x00 0x00 0x00 0x00 0x00 0x00 0x00 0xD0
21:50:59.957 -> Standard ID: 0x21F       DLC: 3  Data: 0x00 0x00 0x00
